cycle number,freq/Hz,Re(Z)/Ohm,-Im(Z)/Ohm,|Z|/Ohm,Phase(Z)/deg
2.0,10001.0,8.4340019,2.2002959,8.716288780023321,-14.621646740081937
2.0,6746.0,8.911397,1.9182779,9.115524482619604,-12.148183150080932
2.0,4551.0005,9.3817205,1.8673815,9.565761506888121,-11.25729191540266
2.0,3070.0,9.8183575,1.8344228,9.988255653864996,-10.582899428339667
2.0,2071.0005,10.250462,1.8349762,10.413410049931311,-10.149243617222862
2.0,1397.0001,10.680414,1.8683239,10.842595510610327,-9.92234913966948
2.0,942.05835,11.15076,1.8977917,11.311103479068207,-9.658844406878103
2.0,635.3645,11.64077,1.927744,11.799310281640873,-9.403003851570237
2.0,428.71338,12.137363,1.9412048,12.291617333341941,-9.086717647223455
2.0,289.13373,12.641953,1.9311496,12.788600956781362,-8.685203588802331
2.0,195.02592,13.125427,1.9288641,13.266399309857887,-8.36013584560212
2.0,133.4655,13.601472,1.9273689,13.737350233704868,-8.065284934219447
2.0,88.668892,14.119561,1.9173831,14.249152984822873,-7.7332468844912485
2.0,59.863087,14.624677,1.8834974,14.7454650591338,-7.338669042645808
2.0,40.354206,15.1258,1.8105934,15.233780689642462,-6.825959310295589
2.0,27.236528,15.586527,1.7068999,15.679710813352044,-6.249627936052027
2.0,18.356367,15.992019,1.5890243,16.07077066983259,-5.674487863202263
2.0,12.393575,16.337261,1.4837435,16.404499131516125,-5.189343411901291
2.0,8.3562918,16.64727,1.4281031,16.70841335726195,-4.903172739163339
2.0,5.6368299,16.922577,1.4249755,16.982466472704406,-4.813269784082241
2.0,3.8021243,17.188803,1.4867285,17.252979748597667,-4.943438588245752
2.0,2.5634654,17.47061,1.622991,17.545834649801673,-5.307450921300757
2.0,1.7299316,17.766916,1.8473518,17.862698923287578,-5.936116143206784
2.0,1.1664815,18.127932,2.1883838,18.259543867597746,-6.883374518456628
2.0,0.78696758,18.575634,2.6507676,18.76381484056922,-8.12135305869562
2.0,0.53085387,19.043587,3.2189593,19.313723224733895,-9.594084561538896
2.0,0.35855919,19.714937,4.053071,20.127248332671062,-11.617220942801158
2.0,0.24214387,20.51232,4.9432864,21.099558104728757,-13.54941389158906
2.0,0.16298145,21.669041,6.2207489,22.54429095661543,-16.017715292438076
2.0,0.1094304,22.964737,7.8166847,24.2586006434498,-18.7974299322758
2.0,0.074505806,24.503298,9.3619833,26.23086624925458,-20.91037358396289
2.0,0.048894435,26.446756,11.33817,28.774728528214407,-23.205629412453497
3.0,10001.0,8.2512407,2.105587,8.51566026235814,-14.315465769437521
3.0,6746.0,8.8758926,1.819878,9.060542223378176,-11.587108675683933
3.0,4551.0005,9.3055506,1.7320722,9.465376171878917,-10.543986083411198
3.0,3070.0,9.6930199,1.6769162,9.837005780399767,-9.815157750726975
3.0,2071.0005,10.064634,1.6646875,10.201374516535125,-9.391678137700087
3.0,1397.0001,10.446989,1.6861974,10.582194518996888,-9.168756962679758
3.0,942.05835,10.85267,1.7416773,10.991537014732529,-9.117300495146594
3.0,635.3645,11.301627,1.7938281,11.443102380887737,-9.018922136872892
3.0,428.71338,11.773071,1.8328594,11.914888767890758,-8.848907763457435
3.0,289.13373,12.251012,1.8574513,12.391021764003794,-8.62130514462186
3.0,195.02592,12.736003,1.8598365,12.871082480612937,-8.308169286778025
3.0,133.4655,13.196651,1.8634449,13.327566338650765,-8.037363588001593
3.0,88.668892,13.701199,1.8565671,13.826412963397392,-7.716805385507055
3.0,59.863087,14.190465,1.829093,14.307860710772731,-7.344695394729861
3.0,40.354206,14.682307,1.7677644,14.788344390639418,-6.865421618999832
3.0,27.236528,15.138665,1.6614487,15.229563019501139,-6.26307142305273
3.0,18.356367,15.523493,1.5423604,15.599926619203604,-5.674087739742481
3.0,12.393575,15.865471,1.4467535,15.931298306842516,-5.210324147670481
3.0,8.3562918,16.16363,1.3916069,16.223424562681817,-4.920743078410872
3.0,5.6368299,16.424852,1.3881218,16.48340515043962,-4.830787580279464
3.0,3.8021243,16.683952,1.4494069,16.746791773353834,-4.965065938502443
3.0,2.5634654,16.959543,1.5905868,17.03396797980973,-5.357933678386835
3.0,1.7299316,17.249931,1.8168176,17.345343631546502,-6.012407302132596
3.0,1.1664815,17.599377,2.1554062,17.73087269919694,-6.9822776674620615
3.0,0.78696758,18.028946,2.6261609,18.219210052678047,-8.287621386729947
3.0,0.53085387,18.516758,3.1687224,18.78592900228322,-9.710807719717769
3.0,0.35855919,19.152618,3.9932432,19.564477184639262,-11.777218074563816
3.0,0.24214387,20.003807,4.862391,20.586285258155,-13.662112645713798
3.0,0.16298145,21.127604,6.1244297,21.997370068511785,-16.165716254960213
3.0,0.1094304,22.37743,7.6099558,23.636006445312493,-18.781773254256976
3.0,0.074505806,23.948143,9.0381203,25.59689769690306,-20.676697441246116
3.0,0.048894435,25.926348,10.903893,28.125973817319696,-22.810253228034956
4.0,10001.0,8.039113,1.8472431,8.24861472595651,-12.940898557830597
4.0,6746.0,8.7590895,1.7981626,8.941758082449391,-11.601128196875624
4.0,4551.0005,9.1826382,1.7218202,9.342671412033459,-10.62011059037159
4.0,3070.0,9.5706015,1.670805,9.71534880587554,-9.902716852739973
4.0,2071.0005,9.9417448,1.6649083,10.080188952382587,-9.506899844818145
4.0,1397.0001,10.317363,1.6921246,10.45520276875079,-9.314015683700324
4.0,942.05835,10.73734,1.745963,10.878366470797395,-9.235840117246187
4.0,635.3645,11.18649,1.8089217,11.331802867894892,-9.185553968955697
4.0,428.71338,11.661633,1.8541499,11.808113993282712,-9.034164212412218
4.0,289.13373,12.150869,1.878559,12.295226771867284,-8.788510599832177
4.0,195.02592,12.639087,1.8811792,12.778315827059592,-8.465654156637692
4.0,133.4655,13.10372,1.8801614,13.237918443941629,-8.16524253483914
4.0,88.668892,13.612657,1.8661348,13.739974151774087,-7.8059192657403464
4.0,59.863087,14.113148,1.8343216,14.231854489212942,-7.405364557437893
4.0,40.354206,14.595077,1.7623837,14.701097542086941,-6.88524039996773
4.0,27.236528,15.04269,1.6598839,15.133992764554211,-6.29682197597737
4.0,18.356367,15.438759,1.5408357,15.51545855314871,-5.6994219462376
4.0,12.393575,15.778338,1.444132,15.844288159323158,-5.2294973317926345
4.0,8.3562918,16.074106,1.3840857,16.133585371025887,-4.921402480963228
4.0,5.6368299,16.336821,1.3810488,16.395091221887803,-4.832064908408999
4.0,3.8021243,16.600998,1.4443245,16.663709306673116,-4.972342193780048
4.0,2.5634654,16.858112,1.5802497,16.93201492200187,-5.355156950470184
4.0,1.7299316,17.154776,1.8107892,17.250081076244616,-6.02559908450069
4.0,1.1664815,17.480913,2.1131642,17.608173734085277,-6.892703536741202
4.0,0.78696758,17.875986,2.5553224,18.057700519172915,-8.135159784710158
4.0,0.53085387,18.406378,3.1700611,18.677367010813306,-9.771970393442508
4.0,0.35855919,19.047937,3.859601,19.435030842146098,-11.454512835377352
4.0,0.24214387,19.897346,4.8817239,20.487449965272575,-13.784972839493207
4.0,0.16298145,20.863926,5.9960704,21.708437723042902,-16.034088052248947
4.0,0.1094304,22.256491,7.2929578,23.420901458006732,-18.142820856880707
4.0,0.074505806,23.896547,9.0266037,25.54455975114981,-20.693392944013723
4.0,0.048894435,25.993849,11.225031,28.313980765440984,-23.356334697267542
5.0,10001.0,8.3267546,1.6768427,8.493918036404898,-11.385945028466798
5.0,6746.0,8.6416492,1.7796992,8.823005731514701,-11.637044051696769
5.0,4551.0005,9.0678988,1.701322,9.226119725796183,-10.62631437393122
5.0,3070.0,9.4527359,1.6543397,9.596408486415369,-9.926897831079717
5.0,2071.0005,9.8212824,1.6481858,9.958619603733812,-9.52648154994415
5.0,1397.0001,10.19513,1.6870811,10.333775609857089,-9.396106808652085
5.0,942.05835,10.610747,1.7446519,10.75322101280275,-9.337204146562433
5.0,635.3645,11.061269,1.8061922,11.207765261357942,-9.27396770765988
5.0,428.71338,11.5426,1.8531972,11.69042149035217,-9.121158950374756
5.0,289.13373,12.024705,1.871302,12.169441298277789,-8.845500668206823
5.0,195.02592,12.513752,1.8753283,12.65349142925718,-8.522998581348265
5.0,133.4655,12.982171,1.8813241,13.117779699418715,-8.24567260087365
5.0,88.668892,13.487358,1.8656456,13.615779791292285,-7.875491620595093
5.0,59.863087,13.984303,1.8358572,14.104293745331626,-7.479011615129212
5.0,40.354206,14.471375,1.7634374,14.57842261200929,-6.94763445590199
5.0,27.236528,14.924696,1.6658891,15.017381169362215,-6.368971013570306
5.0,18.356367,15.322495,1.5422149,15.399911682305422,-5.747485671043134
5.0,12.393575,15.658733,1.4443877,15.725208265495255,-5.270145160216736
5.0,8.3562918,15.956392,1.3844696,16.01634170873574,-4.958896728297574
5.0,5.6368299,16.218451,1.3786943,16.276945377196963,-4.858904729876064
5.0,3.8021243,16.483294,1.4346174,16.5456069146713,-4.974182405382741
5.0,2.5634654,16.746122,1.5692083,16.819483247938177,-5.353313066778773
5.0,1.7299316,17.030769,1.7732842,17.122839413640794,-5.944352835835518
5.0,1.1664815,17.379843,2.0940397,17.50554040782018,-6.87026108172098
5.0,0.78696758,17.752581,2.5531676,17.935238971233442,-8.184132156919075
5.0,0.53085387,18.255497,3.1191792,18.52005533465604,-9.696066015990615
5.0,0.35855919,18.94335,3.821408,19.324949374447634,-11.405111212002385
5.0,0.24214387,19.666561,4.7510633,20.232306444084124,-13.58134213448741
5.0,0.16298145,20.792645,5.8391852,21.596994464413886,-15.686301187188398
5.0,0.1094304,22.097208,7.3318624,23.281812808451956,-18.355864830328358
5.0,0.074505806,23.518183,8.7673168,25.0992186231574,-20.444895122662977
5.0,0.048894435,25.308653,10.575442,27.429325368476945,-22.67803769677205
6.0,10001.0,8.2164402,1.6295499,8.376474344064215,-11.217787251084038
6.0,6746.0,8.6280794,1.7753328,8.808834240889098,-11.627030806320345
6.0,4551.0005,9.04214,1.6979541,9.200181732189142,-10.635281303311231
6.0,3070.0,9.4273491,1.6558021,9.571655637748114,-9.961718156107617
6.0,2071.0005,9.7959061,1.654271,9.934605621838152,-9.585314551823197
6.0,1397.0001,10.181834,1.6943671,10.321851746325288,-9.448057527994504
6.0,942.05835,10.593945,1.7564245,10.738561248473896,-9.413729644638304
6.0,635.3645,11.0493,1.8172717,11.19774561782955,-9.339786961713907
6.0,428.71338,11.53105,1.8652806,11.680941135851869,-9.188660251415106
6.0,289.13373,12.021523,1.8860334,12.168571700304213,-8.91634245543188
6.0,195.02592,12.512542,1.8935808,12.655013059965313,-8.605536399692134
6.0,133.4655,12.980687,1.8854942,13.116909825496348,-8.264629315851368
6.0,88.668892,13.490626,1.8761317,13.620457408898606,-7.917302731144762
6.0,59.863087,13.9875,1.8497826,14.109282473508806,-7.533389748414814
6.0,40.354206,14.482527,1.7831848,14.591892829125356,-7.019307447812966
6.0,27.236528,14.946122,1.6774198,15.039956782661182,-6.403572326840497
6.0,18.356367,15.339115,1.5619521,15.418435178250723,-5.814276526829348
6.0,12.393575,15.689272,1.461906,15.757234054326286,-5.323375543776701
6.0,8.3562918,15.981828,1.3936899,16.042481035019055,-4.983851086608424
6.0,5.6368299,16.250284,1.3846493,16.30916870243994,-4.870277598060315
6.0,3.8021243,16.518953,1.436604,16.581303907383912,-4.970337320409241
6.0,2.5634654,16.781622,1.5581455,16.85380237068342,-5.304608720909424
6.0,1.7299316,17.066225,1.7604567,17.15678418419955,-5.8894827100969644
6.0,1.1664815,17.391476,2.0692146,17.514139616876108,-6.785078986483911
6.0,0.78696758,17.840521,2.5165436,18.017135766878763,-8.02904086031668
6.0,0.53085387,18.29929,3.0571496,18.552902149822277,-9.484461927435513
6.0,0.35855919,18.892908,3.7923069,19.2697577649604,-11.349950124671958
6.0,0.24214387,19.772358,4.713562,20.326431256076607,-13.408560360383207
6.0,0.16298145,20.691929,5.8415632,21.500692694902533,-15.764967239749403
6.0,0.1094304,22.002335,7.0707097,23.11055345754184,-17.81542071231212
6.0,0.074505806,23.588377,8.7289848,25.151674002593943,-20.307219722337564
6.0,0.048894435,25.581697,10.897896,27.80624675547969,-23.07418102154614
7.0,10001.0,8.1465693,2.0493078,8.400372242873724,-14.120050655879897
7.0,6746.0,8.5735025,1.7598538,8.752258595064516,-11.599785053912603
7.0,4551.0005,8.9866028,1.6950445,9.145064556466952,-10.68158209419062
7.0,3070.0,9.3716011,1.653962,9.51643302267006,-10.00886941150501
7.0,2071.0005,9.7437057,1.6535442,9.883016198993408,-9.631551995103571
7.0,1397.0001,10.133701,1.6890011,10.2734911628522,-9.462602400888448
7.0,942.05835,10.543762,1.7570499,10.68915999804166,-9.461033353912768
7.0,635.3645,10.99743,1.8202016,11.14704447239458,-9.397915166364664
7.0,428.71338,11.474769,1.8623283,11.624912485706801,-9.218591603915394
7.0,289.13373,11.966427,1.8821257,12.113536737754563,-8.938473504985122
7.0,195.02592,12.450065,1.8884712,12.59247560956361,-8.625085084654552
7.0,133.4655,12.926438,1.8855773,13.063238538820276,-8.299192459083233
7.0,88.668892,13.431842,1.8787986,13.562605343086776,-7.962668399679724
7.0,59.863087,13.929871,1.8478938,14.051904410887495,-7.556561393937555
7.0,40.354206,14.423022,1.7825085,14.532752669919635,-7.045330126877677
7.0,27.236528,14.883023,1.682467,14.977819227932283,-6.449680338048583
7.0,18.356367,15.283464,1.5703677,15.363929398187798,-5.866523131703215
7.0,12.393575,15.63029,1.453961,15.697769525433255,-5.314474929021453
7.0,8.3562918,15.922309,1.3887352,15.982756625413527,-4.98469260627532
7.0,5.6368299,16.201374,1.3765119,16.259744908783706,-4.856339077737602
7.0,3.8021243,16.46118,1.4346954,16.523583082466743,-4.981100589176927
7.0,2.5634654,16.722122,1.5539497,16.794169340965155,-5.309122278869383
7.0,1.7299316,17.005571,1.7527375,17.095658331282454,-5.8846071364816055
7.0,1.1664815,17.329039,2.0503206,17.449911381617543,-6.747696894970826
7.0,0.78696758,17.761457,2.499743,17.936501047553783,-8.011175893795006
7.0,0.53085387,18.232841,3.0322614,18.483265407638633,-9.4423082615643
7.0,0.35855919,18.821918,3.7325058,19.188439143029786,-11.21659525707119
7.0,0.24214387,19.65004,4.6792393,20.199488915026155,-13.394314372771365
7.0,0.16298145,20.588949,5.7287645,21.371091774194905,-15.548940583446399
7.0,0.1094304,21.968252,7.0002079,23.05660440261589,-17.67453746487304
7.0,0.074505806,23.402737,8.6725435,24.957986894991375,-20.333606076211602
7.0,0.048894435,25.211636,10.817939,27.434547453971554,-23.223453341012654
8.0,10001.0,8.0465937,2.0441775,8.30218837562639,-14.254033670804176
8.0,6746.0,8.5837421,1.7605942,8.762438038376423,-11.591064644677596
8.0,4551.0005,8.9900265,1.6881717,9.14715803730225,-10.635303430801004
8.0,3070.0,9.3642368,1.6507653,9.508625396036923,-9.997612693970602
8.0,2071.0005,9.7367163,1.6492761,9.875411685631992,-9.613922869419673
8.0,1397.0001,10.114944,1.6913104,10.255370446370241,-9.492557151153614
8.0,942.05835,10.537705,1.754133,10.682706082669972,-9.450941591139099
8.0,635.3645,10.985793,1.8158023,11.134845568373828,-9.385359592845102
8.0,428.71338,11.468468,1.8624486,11.618712194329714,-9.224155018587288
8.0,289.13373,11.961058,1.8844378,12.108592581362743,-8.953228400543907
8.0,195.02592,12.452135,1.8899117,12.594738278027927,-8.630151851403257
8.0,133.4655,12.920386,1.8915483,13.058113545234201,-8.32895033408128
8.0,88.668892,13.429671,1.8827288,13.561000365112836,-7.98038421181772
8.0,59.863087,13.931014,1.8499691,14.053310525963298,-7.564336157304031
8.0,40.354206,14.430531,1.7873077,14.540794123996127,-7.060468745004545
8.0,27.236528,14.884343,1.684953,14.97941030728039,-6.458561875792795
8.0,18.356367,15.29862,1.5597781,15.377928391875143,-5.821502793619247
8.0,12.393575,15.636802,1.4588362,15.704705659312257,-5.329984254368523
8.0,8.3562918,15.938619,1.3866385,15.998823142870329,-4.9721369619353375
8.0,5.6368299,16.213039,1.3714665,16.270942012561633,-4.835158757961047
8.0,3.8021243,16.478237,1.421698,16.53945343206277,-4.931114687466236
8.0,2.5634654,16.725779,1.5443031,16.79692100420522,-5.275203797471096
8.0,1.7299316,17.020859,1.7380955,17.109372199616246,-5.830583533342607
8.0,1.1664815,17.347301,2.0351553,17.466273474319564,-6.6912549260442065
8.0,0.78696758,17.739395,2.4929831,17.91371261639838,-7.999600031483621
8.0,0.53085387,18.23307,3.0083356,18.47958129144509,-9.369015094899414
8.0,0.35855919,18.829767,3.6774662,19.185512318581214,-11.050804383139521
8.0,0.24214387,19.622215,4.6348686,20.162175687298507,-13.289970898540183
8.0,0.16298145,20.574976,5.6322341,21.331940801478396,-15.309216753745059
8.0,0.1094304,21.955906,6.9428978,23.027497435502642,-17.54799896174295
8.0,0.074505806,23.335619,8.5626945,24.857008090546444,-20.149939285812113
8.0,0.048894435,25.042639,10.688408,27.228217599739892,-23.113195248921006
9.0,10001.0,8.1476402,2.0456145,8.400510669671593,-14.093839674860098
9.0,6746.0,8.5738134,1.7544396,8.751476134234027,-11.564653052518137
9.0,4551.0005,8.9846878,1.6889578,9.142056295694623,-10.646320613702636
9.0,3070.0,9.3640671,1.6464069,9.507702579154968,-9.971924262595987
9.0,2071.0005,9.733716,1.6502248,9.872612068707603,-9.622259324290972
9.0,1397.0001,10.106611,1.6837199,10.245901551692608,-9.458376809947213
9.0,942.05835,10.530829,1.7523839,10.675636222737277,-9.447741277354874
9.0,635.3645,10.981932,1.8195647,11.131650648044525,-9.407706596745285
9.0,428.71338,11.463235,1.8672262,11.614314028266646,-9.251557269052762
9.0,289.13373,11.956253,1.8877023,12.104354826814781,-8.972032252663421
9.0,195.02592,12.448082,1.8984268,12.592012142373523,-8.671225607975257
9.0,133.4655,12.918681,1.8944166,13.056842383751002,-8.342487989199718
9.0,88.668892,13.430471,1.8955321,13.563575974792615,-8.033475467529213
9.0,59.863087,13.931652,1.8673594,14.056242690629396,-7.634262957869565
9.0,40.354206,14.429193,1.8019701,14.541275971266861,-7.1184517138412
9.0,27.236528,14.894901,1.7027469,14.991911912936944,-6.521595863764914
9.0,18.356367,15.297682,1.580233,15.379083552260616,-5.897670318562267
9.0,12.393575,15.660131,1.470397,15.729010467119982,-5.364020542563891
9.0,8.3562918,15.965446,1.4010791,16.026805315575928,-5.015255465096419
9.0,5.6368299,16.235226,1.3824774,16.29398069940513,-4.867163377514014
9.0,3.8021243,16.490803,1.4196813,16.551799859180836,-4.920420463931707
9.0,2.5634654,16.758711,1.5445753,16.82973877512337,-5.26581875438012
9.0,1.7299316,17.036551,1.7412429,17.125302823962016,-5.835725872898133
9.0,1.1664815,17.35667,2.0382366,17.47593779819783,-6.69770922765087
9.0,0.78696758,17.779215,2.4420445,17.94614352322541,-7.820860700005011
9.0,0.53085387,18.237539,2.9731867,18.478302625771068,-9.259226648783264
9.0,0.35855919,18.832376,3.7107008,19.194470199317735,-11.146677911269867
9.0,0.24214387,19.675734,4.5520339,20.195433173504973,-13.026351969869541
9.0,0.16298145,20.586411,5.6914482,21.358672722671795,-15.454326206935797
9.0,0.1094304,21.814266,6.8695283,22.870343683103165,-17.479730789099634
9.0,0.074505806,23.410152,8.4551954,24.89027010530993,-19.858525663742004
9.0,0.048894435,25.414824,10.524163,27.507658675386114,-22.494223509038612
10.0,10001.0,8.3083429,1.7519746,8.491052746451736,-11.907475248305955
10.0,6746.0,8.5734539,1.7663289,8.753515268644959,-11.641365905737386
10.0,4551.0005,8.9836798,1.6886338,9.14100579036194,-10.645491991920128
10.0,3070.0,9.3618746,1.6476901,9.505765550010329,-9.981830299268006
10.0,2071.0005,9.7338028,1.6484129,9.872394949462578,-9.61180745609791
10.0,1397.0001,10.112448,1.692026,10.253026701290699,-9.498801611213146
10.0,942.05835,10.526171,1.757717,10.671918523551891,-9.480090456763854
10.0,635.3645,10.980518,1.8203812,11.130389178354791,-9.413042942002528
10.0,428.71338,11.461193,1.8682476,11.612462877363903,-9.258151077047199
10.0,289.13373,11.959791,1.8927479,12.108637222108662,-8.993004138188406
10.0,195.02592,12.452074,1.8969951,12.595742824895243,-8.662049786936986
10.0,133.4655,12.921711,1.903872,13.061215248203553,-8.381598702471349
10.0,88.668892,13.435068,1.895878,13.56817620594264,-8.032208909476205
10.0,59.863087,13.939185,1.8696826,14.064017615495501,-7.639566621628649
10.0,40.354206,14.444817,1.8084326,14.557581070776552,-7.136070516624766
10.0,27.236528,14.900255,1.7014422,14.997083203908879,-6.514320358447447
10.0,18.356367,15.311805,1.5773401,15.392835156302201,-5.881557664174391
10.0,12.393575,15.666265,1.4718317,15.735251748966391,-5.367133770216596
10.0,8.3562918,15.978941,1.3973165,16.0399204761948,-4.997652496259759
10.0,5.6368299,16.243372,1.3777844,16.30170002739798,-4.848299102438907
10.0,3.8021243,16.501808,1.4208379,16.562863508673264,-4.921141437827423
10.0,2.5634654,16.771748,1.5362393,16.841958382633788,-5.2335092221379
