cycle number	freq/Hz	Re(Z)/Ohm	-Im(Z)/Ohm	
1.500000000000000E+001	1.0001000E+004	7.4515128E+000	1.7804224E+000
1.500000000000000E+001	6.8140005E+003	8.2557774E+000	2.0465593E+000
1.500000000000000E+001	4.6429990E+003	8.7978830E+000	2.0477996E+000
1.500000000000000E+001	3.1629995E+003	9.3153162E+000	2.0274947E+000
1.500000000000000E+001	2.1549988E+003	9.8127966E+000	2.0043342E+000
1.500000000000000E+001	1.4675315E+003	1.0304980E+001	1.9796847E+000
1.500000000000000E+001	1.0019983E+003	1.0787163E+001	1.9441105E+000
1.500000000000000E+001	6.8131830E+002	1.1261284E+001	1.9210718E+000
1.500000000000000E+001	4.6407104E+002	1.1703721E+001	1.8885666E+000
1.500000000000000E+001	3.1636792E+002	1.2148364E+001	1.8877281E+000
1.500000000000000E+001	2.1535437E+002	1.2586665E+001	1.9092549E+000
1.500000000000000E+001	1.4682532E+002	1.3044455E+001	1.9349278E+000
1.500000000000000E+001	1.0197982E+002	1.3485065E+001	1.9693316E+000
1.500000000000000E+001	6.8114601E+001	1.4020040E+001	2.0142076E+000
1.500000000000000E+001	4.6396160E+001	1.4558168E+001	2.0394163E+000
1.500000000000000E+001	3.1609087E+001	1.5106959E+001	2.0071540E+000
1.500000000000000E+001	2.1534506E+001	1.5628263E+001	1.9199538E+000
1.500000000000000E+001	1.4679972E+001	1.6099190E+001	1.7943769E+000
1.500000000000000E+001	1.0000075E+001	1.6504488E+001	1.6759616E+000
1.500000000000000E+001	6.8149529E+000	1.6846981E+001	1.6089884E+000
1.500000000000000E+001	4.6403146E+000	1.7152962E+001	1.5692245E+000
1.500000000000000E+001	3.1618400E+000	1.7438303E+001	1.5888913E+000
1.500000000000000E+001	2.1560116E+000	1.7713287E+001	1.7018542E+000
1.500000000000000E+001	1.4668330E+000	1.8041159E+001	1.9294143E+000
1.500000000000000E+001	9.9884343E-001	1.8382778E+001	2.2345107E+000
1.600000000000000E+001	1.0001000E+004	7.5019979E+000	1.8223174E+000
1.600000000000000E+001	6.8140005E+003	8.3091116E+000	2.0660636E+000
1.600000000000000E+001	4.6429990E+003	8.8562088E+000	2.0711505E+000
1.600000000000000E+001	3.1629995E+003	9.3728638E+000	2.0470104E+000
1.600000000000000E+001	2.1549988E+003	9.8786440E+000	2.0252850E+000
1.600000000000000E+001	1.4675315E+003	1.0377721E+001	1.9987878E+000
1.600000000000000E+001	1.0019983E+003	1.0859228E+001	1.9784983E+000
1.600000000000000E+001	6.8131830E+002	1.1335038E+001	1.9354522E+000
1.600000000000000E+001	4.6407104E+002	1.1793190E+001	1.9077469E+000
1.600000000000000E+001	3.1636792E+002	1.2234207E+001	1.9045225E+000
1.600000000000000E+001	2.1535437E+002	1.2676303E+001	1.9137264E+000
1.600000000000000E+001	1.4682532E+002	1.3123812E+001	1.9526923E+000
1.600000000000000E+001	1.0197982E+002	1.3567857E+001	2.0029876E+000
1.600000000000000E+001	6.8114601E+001	1.4095450E+001	2.0762653E+000
1.600000000000000E+001	4.6396160E+001	1.4634622E+001	2.1247797E+000
1.600000000000000E+001	3.1609087E+001	1.5206635E+001	2.1359801E+000
1.600000000000000E+001	2.1534506E+001	1.5795761E+001	2.0997605E+000
1.600000000000000E+001	1.4679972E+001	1.6317852E+001	2.0103779E+000
1.600000000000000E+001	1.0000075E+001	1.6806082E+001	1.8901608E+000
1.600000000000000E+001	6.8149529E+000	1.7193010E+001	1.7944736E+000
1.600000000000000E+001	4.6403146E+000	1.7549982E+001	1.7396445E+000
1.600000000000000E+001	3.1618400E+000	1.7888865E+001	1.7545623E+000
1.600000000000000E+001	2.1560116E+000	1.8207905E+001	1.8558202E+000
1.600000000000000E+001	1.4668330E+000	1.8555193E+001	2.0595405E+000
1.600000000000000E+001	9.9884343E-001	1.8947498E+001	2.3767745E+000
1.700000000000000E+001	1.0001000E+004	7.6439543E+000	2.3279409E+000
1.700000000000000E+001	6.8140005E+003	8.3801222E+000	2.0833704E+000
1.700000000000000E+001	4.6429990E+003	8.9206381E+000	2.0690446E+000
1.700000000000000E+001	3.1629995E+003	9.4356470E+000	2.0381014E+000
1.700000000000000E+001	2.1549988E+003	9.9310637E+000	2.0168061E+000
1.700000000000000E+001	1.4675315E+003	1.0427711E+001	1.9976443E+000
1.700000000000000E+001	1.0019983E+003	1.0906003E+001	1.9783139E+000
1.700000000000000E+001	6.8131830E+002	1.1379498E+001	1.9498663E+000
1.700000000000000E+001	4.6407104E+002	1.1848548E+001	1.9318368E+000
1.700000000000000E+001	3.1636792E+002	1.2304386E+001	1.9217204E+000
1.700000000000000E+001	2.1535437E+002	1.2740799E+001	1.9433403E+000
1.700000000000000E+001	1.4682532E+002	1.3198954E+001	1.9714626E+000
1.700000000000000E+001	1.0197982E+002	1.3642101E+001	2.0247688E+000
1.700000000000000E+001	6.8114601E+001	1.4173689E+001	2.0931382E+000
1.700000000000000E+001	4.6396160E+001	1.4725450E+001	2.1507132E+000
1.700000000000000E+001	3.1609087E+001	1.5314647E+001	2.1814358E+000
1.700000000000000E+001	2.1534506E+001	1.5904203E+001	2.1361697E+000
1.700000000000000E+001	1.4679972E+001	1.6440002E+001	2.0343642E+000
1.700000000000000E+001	1.0000075E+001	1.6914482E+001	1.9108928E+000
1.700000000000000E+001	6.8149529E+000	1.7334030E+001	1.8260835E+000
1.700000000000000E+001	4.6403146E+000	1.7702555E+001	1.7669578E+000
1.700000000000000E+001	3.1618400E+000	1.8033609E+001	1.7928898E+000
1.700000000000000E+001	2.1560116E+000	1.8372879E+001	1.8733132E+000
1.700000000000000E+001	1.4668330E+000	1.8695747E+001	2.0633628E+000
1.700000000000000E+001	9.9884343E-001	1.9065447E+001	2.3556633E+000
1.800000000000000E+001	1.0001000E+004	7.6850886E+000	1.7977396E+000
1.800000000000000E+001	6.8140005E+003	8.4228439E+000	2.0923326E+000
1.800000000000000E+001	4.6429990E+003	8.9679861E+000	2.0672050E+000
1.800000000000000E+001	3.1629995E+003	9.4906511E+000	2.0456126E+000
1.800000000000000E+001	2.1549988E+003	9.9708376E+000	2.0161817E+000
1.800000000000000E+001	1.4675315E+003	1.0460834E+001	1.9946278E+000
1.800000000000000E+001	1.0019983E+003	1.0947798E+001	1.9927677E+000
1.800000000000000E+001	6.8131830E+002	1.1429347E+001	1.9612881E+000
1.800000000000000E+001	4.6407104E+002	1.1891531E+001	1.9431354E+000
1.800000000000000E+001	3.1636792E+002	1.2345703E+001	1.9290961E+000
1.800000000000000E+001	2.1535437E+002	1.2802340E+001	1.9401296E+000
1.800000000000000E+001	1.4682532E+002	1.3242345E+001	1.9785603E+000
1.800000000000000E+001	1.0197982E+002	1.3694773E+001	2.0309613E+000
1.800000000000000E+001	6.8114601E+001	1.4227099E+001	2.0976918E+000
1.800000000000000E+001	4.6396160E+001	1.4782079E+001	2.1676433E+000
1.800000000000000E+001	3.1609087E+001	1.5361137E+001	2.1800628E+000
1.800000000000000E+001	2.1534506E+001	1.5962697E+001	2.1460912E+000
1.800000000000000E+001	1.4679972E+001	1.6514002E+001	2.0557520E+000
1.800000000000000E+001	1.0000075E+001	1.6997986E+001	1.9260340E+000
1.800000000000000E+001	6.8149529E+000	1.7414955E+001	1.8344418E+000
1.800000000000000E+001	4.6403146E+000	1.7785477E+001	1.7848184E+000
1.800000000000000E+001	3.1618400E+000	1.8111208E+001	1.7790968E+000
1.800000000000000E+001	2.1560116E+000	1.8430851E+001	1.8909941E+000
1.800000000000000E+001	1.4668330E+000	1.8793962E+001	2.0686717E+000
1.800000000000000E+001	9.9884343E-001	1.9215200E+001	2.3808782E+000
1.900000000000000E+001	1.0001000E+004	7.7545462E+000	2.3687365E+000
1.900000000000000E+001	6.8140005E+003	8.4839840E+000	2.1073251E+000
1.900000000000000E+001	4.6429990E+003	9.0332031E+000	2.0820248E+000
1.900000000000000E+001	3.1629995E+003	9.5425339E+000	2.0468788E+000
1.900000000000000E+001	2.1549988E+003	1.0030431E+001	2.0251195E+000
1.900000000000000E+001	1.4675315E+003	1.0520514E+001	1.9987931E+000
1.900000000000000E+001	1.0019983E+003	1.0997607E+001	1.9921405E+000
1.900000000000000E+001	6.8131830E+002	1.1484529E+001	1.9685124E+000
1.900000000000000E+001	4.6407104E+002	1.1960836E+001	1.9582995E+000
1.900000000000000E+001	3.1636792E+002	1.2415526E+001	1.9557780E+000
1.900000000000000E+001	2.1535437E+002	1.2878506E+001	1.9560492E+000
1.900000000000000E+001	1.4682532E+002	1.3327361E+001	1.9940436E+000
1.900000000000000E+001	1.0197982E+002	1.3776639E+001	2.0428102E+000
1.900000000000000E+001	6.8114601E+001	1.4312263E+001	2.1132381E+000
1.900000000000000E+001	4.6396160E+001	1.4871856E+001	2.1640599E+000
1.900000000000000E+001	3.1609087E+001	1.5457580E+001	2.1913559E+000
1.900000000000000E+001	2.1534506E+001	1.6052788E+001	2.1464238E+000
1.900000000000000E+001	1.4679972E+001	1.6602306E+001	2.0495486E+000
1.900000000000000E+001	1.0000075E+001	1.7076870E+001	1.9219609E+000
1.900000000000000E+001	6.8149529E+000	1.7506248E+001	1.8126876E+000
1.900000000000000E+001	4.6403146E+000	1.7865202E+001	1.7606081E+000
1.900000000000000E+001	3.1618400E+000	1.8195911E+001	1.7748364E+000
1.900000000000000E+001	2.1560116E+000	1.8508562E+001	1.8739119E+000
1.900000000000000E+001	1.4668330E+000	1.8862499E+001	2.0524318E+000
1.900000000000000E+001	9.9884343E-001	1.9245010E+001	2.3278408E+000
2.000000000000000E+001	1.0001000E+004	7.9965239E+000	2.4107349E+000
2.000000000000000E+001	6.8140005E+003	8.5121117E+000	2.1195548E+000
2.000000000000000E+001	4.6429990E+003	9.0570431E+000	2.0812683E+000
2.000000000000000E+001	3.1629995E+003	9.5696964E+000	2.0628846E+000
2.000000000000000E+001	2.1549988E+003	1.0063396E+001	2.0260098E+000
2.000000000000000E+001	1.4675315E+003	1.0557078E+001	2.0206199E+000
2.000000000000000E+001	1.0019983E+003	1.1042747E+001	2.0046744E+000
2.000000000000000E+001	6.8131830E+002	1.1528284E+001	1.9853017E+000
2.000000000000000E+001	4.6407104E+002	1.2006495E+001	1.9745646E+000
2.000000000000000E+001	3.1636792E+002	1.2468768E+001	1.9554641E+000
2.000000000000000E+001	2.1535437E+002	1.2930976E+001	1.9654275E+000
2.000000000000000E+001	1.4682532E+002	1.3389789E+001	1.9920461E+000
2.000000000000000E+001	1.0197982E+002	1.3835261E+001	2.0465624E+000
2.000000000000000E+001	6.8114601E+001	1.4377011E+001	2.1159708E+000
2.000000000000000E+001	4.6396160E+001	1.4931057E+001	2.1657844E+000
2.000000000000000E+001	3.1609087E+001	1.5519394E+001	2.1783624E+000
2.000000000000000E+001	2.1534506E+001	1.6091228E+001	2.1111794E+000
2.000000000000000E+001	1.4679972E+001	1.6640699E+001	2.0149324E+000
2.000000000000000E+001	1.0000075E+001	1.7120331E+001	1.8904294E+000
2.000000000000000E+001	6.8149529E+000	1.7522272E+001	1.7892914E+000
2.000000000000000E+001	4.6403146E+000	1.7874483E+001	1.7415344E+000
2.000000000000000E+001	3.1618400E+000	1.8202223E+001	1.7500647E+000
2.000000000000000E+001	2.1560116E+000	1.8523905E+001	1.8398130E+000
2.000000000000000E+001	1.4668330E+000	1.8844765E+001	2.0265496E+000
2.000000000000000E+001	9.9884343E-001	1.9246571E+001	2.3005786E+000
2.100000000000000E+001	1.0001000E+004	7.8871522E+000	1.8067192E+000
2.100000000000000E+001	6.8140005E+003	8.5473452E+000	2.1209116E+000
2.100000000000000E+001	4.6429990E+003	9.0929384E+000	2.0852034E+000
2.100000000000000E+001	3.1629995E+003	9.5993118E+000	2.0473504E+000
2.100000000000000E+001	2.1549988E+003	1.0087093E+001	2.0127432E+000
2.100000000000000E+001	1.4675315E+003	1.0573068E+001	2.0075400E+000
2.100000000000000E+001	1.0019983E+003	1.1048360E+001	1.9982831E+000
2.100000000000000E+001	6.8131830E+002	1.1545662E+001	1.9892082E+000
2.100000000000000E+001	4.6407104E+002	1.2016683E+001	1.9689877E+000
2.100000000000000E+001	3.1636792E+002	1.2479200E+001	1.9708548E+000
2.100000000000000E+001	2.1535437E+002	1.2949595E+001	1.9697061E+000
2.100000000000000E+001	1.4682532E+002	1.3404477E+001	1.9946910E+000
2.100000000000000E+001	1.0197982E+002	1.3860567E+001	2.0452316E+000
2.100000000000000E+001	6.8114601E+001	1.4404249E+001	2.1064906E+000
2.100000000000000E+001	4.6396160E+001	1.4958111E+001	2.1575410E+000
2.100000000000000E+001	3.1609087E+001	1.5543425E+001	2.1673417E+000
2.100000000000000E+001	2.1534506E+001	1.6118277E+001	2.1150427E+000
2.100000000000000E+001	1.4679972E+001	1.6661894E+001	2.0043125E+000
2.100000000000000E+001	1.0000075E+001	1.7142260E+001	1.8845567E+000
2.100000000000000E+001	6.8149529E+000	1.7527752E+001	1.7732561E+000
2.100000000000000E+001	4.6403146E+000	1.7887686E+001	1.7153798E+000
2.100000000000000E+001	3.1618400E+000	1.8200941E+001	1.7337652E+000
2.100000000000000E+001	2.1560116E+000	1.8511992E+001	1.8287677E+000
2.100000000000000E+001	1.4668330E+000	1.8854784E+001	2.0403397E+000
2.100000000000000E+001	9.9884343E-001	1.9219410E+001	2.3552575E+000
2.200000000000000E+001	1.0001000E+004	8.3169212E+000	2.1320465E+000
2.200000000000000E+001	6.8140005E+003	8.5843821E+000	2.1393964E+000
2.200000000000000E+001	4.6429990E+003	9.1340389E+000	2.1100197E+000
2.200000000000000E+001	3.1629995E+003	9.6427135E+000	2.0736101E+000
2.200000000000000E+001	2.1549988E+003	1.0147557E+001	2.0394051E+000
2.200000000000000E+001	1.4675315E+003	1.0632906E+001	2.0305715E+000
2.200000000000000E+001	1.0019983E+003	1.1125821E+001	2.0330606E+000
2.200000000000000E+001	6.8131830E+002	1.1620162E+001	2.0034091E+000
2.200000000000000E+001	4.6407104E+002	1.2106125E+001	1.9887375E+000
2.200000000000000E+001	3.1636792E+002	1.2581095E+001	1.9869382E+000
2.200000000000000E+001	2.1535437E+002	1.3038719E+001	1.9897695E+000
2.200000000000000E+001	1.4682532E+002	1.3508278E+001	2.0176413E+000
2.200000000000000E+001	1.0197982E+002	1.3967851E+001	2.0568454E+000
2.200000000000000E+001	6.8114601E+001	1.4508694E+001	2.1215122E+000
2.200000000000000E+001	4.6396160E+001	1.5062466E+001	2.1692681E+000
2.200000000000000E+001	3.1609087E+001	1.5646476E+001	2.1783929E+000
2.200000000000000E+001	2.1534506E+001	1.6241264E+001	2.1146069E+000
2.200000000000000E+001	1.4679972E+001	1.6769587E+001	2.0078335E+000
2.200000000000000E+001	1.0000075E+001	1.7249296E+001	1.8869553E+000
2.200000000000000E+001	6.8149529E+000	1.7632366E+001	1.7705436E+000
2.200000000000000E+001	4.6403146E+000	1.7986572E+001	1.7116089E+000
2.200000000000000E+001	3.1618400E+000	1.8308876E+001	1.7298403E+000
2.200000000000000E+001	2.1560116E+000	1.8624121E+001	1.8129151E+000
2.200000000000000E+001	1.4668330E+000	1.8933044E+001	2.0263007E+000
2.200000000000000E+001	9.9884343E-001	1.9300760E+001	2.3197803E+000
2.300000000000000E+001	1.0001000E+004	8.3202314E+000	2.0207365E+000
2.300000000000000E+001	6.8140005E+003	8.6146955E+000	2.1471643E+000
2.300000000000000E+001	4.6429990E+003	9.1678209E+000	2.1110065E+000
2.300000000000000E+001	3.1629995E+003	9.6837530E+000	2.0703225E+000
2.300000000000000E+001	2.1549988E+003	1.0169826E+001	2.0434897E+000
2.300000000000000E+001	1.4675315E+003	1.0659333E+001	2.0305119E+000
2.300000000000000E+001	1.0019983E+003	1.1141164E+001	2.0275979E+000
2.300000000000000E+001	6.8131830E+002	1.1639728E+001	2.0112066E+000
2.300000000000000E+001	4.6407104E+002	1.2134848E+001	1.9985921E+000
2.300000000000000E+001	3.1636792E+002	1.2608431E+001	1.9848478E+000
2.300000000000000E+001	2.1535437E+002	1.3075068E+001	1.9889404E+000
2.300000000000000E+001	1.4682532E+002	1.3547329E+001	2.0061541E+000
2.300000000000000E+001	1.0197982E+002	1.4000192E+001	2.0565405E+000
2.300000000000000E+001	6.8114601E+001	1.4544501E+001	2.1143479E+000
2.300000000000000E+001	4.6396160E+001	1.5093434E+001	2.1604021E+000
2.300000000000000E+001	3.1609087E+001	1.5690266E+001	2.1671510E+000
2.300000000000000E+001	2.1534506E+001	1.6269613E+001	2.1112204E+000
2.300000000000000E+001	1.4679972E+001	1.6799139E+001	1.9982854E+000
2.300000000000000E+001	1.0000075E+001	1.7263792E+001	1.8574617E+000
2.300000000000000E+001	6.8149529E+000	1.7665585E+001	1.7609940E+000
2.300000000000000E+001	4.6403146E+000	1.8006561E+001	1.6992091E+000
2.300000000000000E+001	3.1618400E+000	1.8328508E+001	1.7193092E+000
2.300000000000000E+001	2.1560116E+000	1.8640316E+001	1.8121543E+000
2.300000000000000E+001	1.4668330E+000	1.8972687E+001	2.0138562E+000
2.300000000000000E+001	9.9884343E-001	1.9333473E+001	2.3250768E+000
2.400000000000000E+001	1.0001000E+004	8.2527199E+000	1.9101387E+000
2.400000000000000E+001	6.8140005E+003	8.6394053E+000	2.1709940E+000
2.400000000000000E+001	4.6429990E+003	9.1959057E+000	2.1211281E+000
2.400000000000000E+001	3.1629995E+003	9.7322226E+000	2.0671418E+000
2.400000000000000E+001	2.1549988E+003	1.0204671E+001	2.0511608E+000
2.400000000000000E+001	1.4675315E+003	1.0696565E+001	2.0383773E+000
2.400000000000000E+001	1.0019983E+003	1.1179420E+001	2.0384910E+000
2.400000000000000E+001	6.8131830E+002	1.1686297E+001	2.0208862E+000
2.400000000000000E+001	4.6407104E+002	1.2172591E+001	2.0149150E+000
2.400000000000000E+001	3.1636792E+002	1.2657086E+001	2.0020366E+000
2.400000000000000E+001	2.1535437E+002	1.3130168E+001	2.0013070E+000
2.400000000000000E+001	1.4682532E+002	1.3605435E+001	2.0234702E+000
2.400000000000000E+001	1.0197982E+002	1.4060267E+001	2.0717969E+000
2.400000000000000E+001	6.8114601E+001	1.4600551E+001	2.1186829E+000
2.400000000000000E+001	4.6396160E+001	1.5165097E+001	2.1678543E+000
2.400000000000000E+001	3.1609087E+001	1.5757538E+001	2.1604493E+000
2.400000000000000E+001	2.1534506E+001	1.6326351E+001	2.0987310E+000
2.400000000000000E+001	1.4679972E+001	1.6860394E+001	1.9880458E+000
2.400000000000000E+001	1.0000075E+001	1.7312519E+001	1.8510746E+000
2.400000000000000E+001	6.8149529E+000	1.7721678E+001	1.7499298E+000
2.400000000000000E+001	4.6403146E+000	1.8066700E+001	1.7050166E+000
2.400000000000000E+001	3.1618400E+000	1.8382755E+001	1.7046117E+000
2.400000000000000E+001	2.1560116E+000	1.8681561E+001	1.7965302E+000
2.400000000000000E+001	1.4668330E+000	1.8998173E+001	2.0098507E+000
2.400000000000000E+001	9.9884343E-001	1.9366428E+001	2.2925434E+000