cycle number	freq/Hz	Re(Z)/Ohm	-Im(Z)/Ohm	
2.000000000000000E+000	9.9979990E+003	8.0703106E+000	2.0909793E+000
2.000000000000000E+000	6.8129990E+003	8.6746445E+000	2.0802417E+000
2.000000000000000E+000	4.6420000E+003	9.2329988E+000	2.1773100E+000
2.000000000000000E+000	3.1620007E+003	9.7997351E+000	2.2354736E+000
2.000000000000000E+000	2.1540000E+003	1.0363752E+001	2.2844932E+000
2.000000000000000E+000	1.4679995E+003	1.0926379E+001	2.3327811E+000
2.000000000000000E+000	9.9800061E+002	1.1507975E+001	2.3952134E+000
2.000000000000000E+000	6.8099933E+002	1.2097136E+001	2.4645715E+000
2.000000000000000E+000	4.6399887E+002	1.2716316E+001	2.5230522E+000
2.000000000000000E+000	3.1600006E+002	1.3361485E+001	2.5650027E+000
2.000000000000000E+000	2.1500046E+002	1.4013545E+001	2.5891476E+000
2.000000000000000E+000	1.4699995E+002	1.4664572E+001	2.6075842E+000
2.000000000000000E+000	1.0200077E+002	1.5296975E+001	2.6026087E+000
2.000000000000000E+000	6.8000511E+001	1.6006382E+001	2.5644543E+000
2.000000000000000E+000	4.6000347E+001	1.6683783E+001	2.4934156E+000
2.000000000000000E+000	3.2000240E+001	1.7287359E+001	2.3877454E+000
2.000000000000000E+000	2.2000166E+001	1.7865393E+001	2.2467625E+000
2.000000000000000E+000	1.4998950E+001	1.8379156E+001	2.0956337E+000
2.000000000000000E+000	1.0000075E+001	1.8842802E+001	1.9427252E+000
2.000000000000000E+000	6.9988890E+000	1.9197361E+001	1.8699443E+000
2.000000000000000E+000	4.9988737E+000	1.9521811E+001	1.8784480E+000
2.000000000000000E+000	2.9988587E+000	1.9970646E+001	1.9672575E+000
2.000000000000000E+000	2.0000150E+000	2.0351006E+001	2.1473427E+000
2.000000000000000E+000	9.9884343E-001	2.1163099E+001	2.8397024E+000
2.000000000000000E+000	9.9884343E-001	2.1116123E+001	2.7487147E+000
2.000000000000000E+000	0.0000000E+000	0.0000000E+000	0.0000000E+000
3.000000000000000E+000	9.9979990E+003	8.0651236E+000	1.7480329E+000
3.000000000000000E+000	6.8129990E+003	8.5818462E+000	2.0224042E+000
3.000000000000000E+000	4.6420000E+003	9.1295605E+000	2.1012630E+000
3.000000000000000E+000	3.1620007E+003	9.6736364E+000	2.1567147E+000
3.000000000000000E+000	2.1540000E+003	1.0209495E+001	2.2025094E+000
3.000000000000000E+000	1.4679995E+003	1.0744217E+001	2.2589183E+000
3.000000000000000E+000	9.9800061E+002	1.1303630E+001	2.3170149E+000
3.000000000000000E+000	6.8099933E+002	1.1874510E+001	2.3838351E+000
3.000000000000000E+000	4.6399887E+002	1.2477264E+001	2.4390197E+000
3.000000000000000E+000	3.1600006E+002	1.3099950E+001	2.4900303E+000
3.000000000000000E+000	2.1500046E+002	1.3733601E+001	2.5267894E+000
3.000000000000000E+000	1.4699995E+002	1.4366010E+001	2.5567493E+000
3.000000000000000E+000	1.0200077E+002	1.4983879E+001	2.5556149E+000
3.000000000000000E+000	6.8000511E+001	1.5681844E+001	2.5403528E+000
3.000000000000000E+000	4.6000347E+001	1.6360548E+001	2.4905815E+000
3.000000000000000E+000	3.2000240E+001	1.6976168E+001	2.3906066E+000
3.000000000000000E+000	2.2000166E+001	1.7556055E+001	2.2565973E+000
3.000000000000000E+000	1.4998950E+001	1.8076544E+001	2.0984600E+000
3.000000000000000E+000	1.0000075E+001	1.8557695E+001	1.9527471E+000
3.000000000000000E+000	6.9988890E+000	1.8911253E+001	1.8636435E+000
3.000000000000000E+000	4.9988737E+000	1.9220999E+001	1.8476914E+000
3.000000000000000E+000	2.9988587E+000	1.9672615E+001	1.9383657E+000
3.000000000000000E+000	2.0000150E+000	2.0062759E+001	2.1076050E+000
3.000000000000000E+000	9.9884343E-001	2.0796181E+001	2.7615743E+000
3.000000000000000E+000	9.9884343E-001	2.0798365E+001	2.6821194E+000
3.000000000000000E+000	0.0000000E+000	0.0000000E+000	0.0000000E+000
4.000000000000000E+000	9.9979990E+003	8.0069551E+000	1.7945827E+000
4.000000000000000E+000	6.8129990E+003	8.5999670E+000	2.0194473E+000
4.000000000000000E+000	4.6420000E+003	9.1417141E+000	2.0842710E+000
4.000000000000000E+000	3.1620007E+003	9.6764460E+000	2.1322072E+000
4.000000000000000E+000	2.1540000E+003	1.0209579E+001	2.1720023E+000
4.000000000000000E+000	1.4679995E+003	1.0731196E+001	2.2220953E+000
4.000000000000000E+000	9.9800061E+002	1.1274774E+001	2.2781553E+000
4.000000000000000E+000	6.8099933E+002	1.1842546E+001	2.3466773E+000
4.000000000000000E+000	4.6399887E+002	1.2429478E+001	2.4149990E+000
4.000000000000000E+000	3.1600006E+002	1.3039417E+001	2.4653893E+000
4.000000000000000E+000	2.1500046E+002	1.3664865E+001	2.5028403E+000
4.000000000000000E+000	1.4699995E+002	1.4294612E+001	2.5398166E+000
4.000000000000000E+000	1.0200077E+002	1.4910825E+001	2.5412738E+000
4.000000000000000E+000	6.8000511E+001	1.5613340E+001	2.5433640E+000
4.000000000000000E+000	4.6000347E+001	1.6292788E+001	2.4958966E+000
4.000000000000000E+000	3.2000240E+001	1.6909431E+001	2.4191692E+000
4.000000000000000E+000	2.2000166E+001	1.7497000E+001	2.2776828E+000
4.000000000000000E+000	1.4998950E+001	1.8042604E+001	2.1268241E+000
4.000000000000000E+000	1.0000075E+001	1.8518612E+001	1.9717157E+000
4.000000000000000E+000	6.9988890E+000	1.8892054E+001	1.8769464E+000
4.000000000000000E+000	4.9988737E+000	1.9202971E+001	1.8581702E+000
4.000000000000000E+000	2.9988587E+000	1.9641012E+001	1.9401788E+000
4.000000000000000E+000	2.0000150E+000	2.0031311E+001	2.0980523E+000
4.000000000000000E+000	9.9884343E-001	2.0818434E+001	2.7490039E+000
4.000000000000000E+000	9.9884343E-001	2.0761986E+001	2.6546900E+000
4.000000000000000E+000	0.0000000E+000	0.0000000E+000	0.0000000E+000
5.000000000000000E+000	9.9979990E+003	7.9227123E+000	1.9835304E+000
5.000000000000000E+000	6.8129990E+003	8.5732841E+000	1.9946030E+000
5.000000000000000E+000	4.6420000E+003	9.1015120E+000	2.0533991E+000
5.000000000000000E+000	3.1620007E+003	9.6278706E+000	2.0856507E+000
5.000000000000000E+000	2.1540000E+003	1.0135653E+001	2.1258984E+000
5.000000000000000E+000	1.4679995E+003	1.0651361E+001	2.1730087E+000
5.000000000000000E+000	9.9800061E+002	1.1177297E+001	2.2297499E+000
5.000000000000000E+000	6.8099933E+002	1.1731900E+001	2.3012261E+000
5.000000000000000E+000	4.6399887E+002	1.2310761E+001	2.3743727E+000
5.000000000000000E+000	3.1600006E+002	1.2914717E+001	2.4280772E+000
5.000000000000000E+000	2.1500046E+002	1.3531845E+001	2.4728467E+000
5.000000000000000E+000	1.4699995E+002	1.4154385E+001	2.5042748E+000
5.000000000000000E+000	1.0200077E+002	1.4768543E+001	2.5248823E+000
5.000000000000000E+000	6.8000511E+001	1.5445351E+001	2.5134230E+000
5.000000000000000E+000	4.6000347E+001	1.6124784E+001	2.4855456E+000
5.000000000000000E+000	3.2000240E+001	1.6741339E+001	2.3983002E+000
5.000000000000000E+000	2.2000166E+001	1.7334606E+001	2.2649810E+000
5.000000000000000E+000	1.4998950E+001	1.7866461E+001	2.1211584E+000
5.000000000000000E+000	1.0000075E+001	1.8360529E+001	1.9620608E+000
5.000000000000000E+000	6.9988890E+000	1.8726879E+001	1.8690628E+000
5.000000000000000E+000	4.9988737E+000	1.9046270E+001	1.8413777E+000
5.000000000000000E+000	2.9988587E+000	1.9500151E+001	1.9269501E+000
5.000000000000000E+000	2.0000150E+000	1.9856451E+001	2.0899184E+000
5.000000000000000E+000	9.9884343E-001	2.0712034E+001	2.6506178E+000
5.000000000000000E+000	9.9884343E-001	2.0594435E+001	2.6357095E+000
5.000000000000000E+000	0.0000000E+000	0.0000000E+000	0.0000000E+000
6.000000000000000E+000	9.9979990E+003	8.2183790E+000	1.9131525E+000
6.000000000000000E+000	6.8129990E+003	8.6043406E+000	1.9993225E+000
6.000000000000000E+000	4.6420000E+003	9.1296196E+000	2.0480928E+000
6.000000000000000E+000	3.1620007E+003	9.6436100E+000	2.0914879E+000
6.000000000000000E+000	2.1540000E+003	1.0162888E+001	2.1189933E+000
6.000000000000000E+000	1.4679995E+003	1.0674768E+001	2.1659925E+000
6.000000000000000E+000	9.9800061E+002	1.1203149E+001	2.2300591E+000
6.000000000000000E+000	6.8099933E+002	1.1749250E+001	2.2999859E+000
6.000000000000000E+000	4.6399887E+002	1.2330894E+001	2.3649688E+000
6.000000000000000E+000	3.1600006E+002	1.2924615E+001	2.4212260E+000
6.000000000000000E+000	2.1500046E+002	1.3537667E+001	2.4746461E+000
6.000000000000000E+000	1.4699995E+002	1.4156088E+001	2.5048511E+000
6.000000000000000E+000	1.0200077E+002	1.4769914E+001	2.5310440E+000
6.000000000000000E+000	6.8000511E+001	1.5462284E+001	2.5232646E+000
6.000000000000000E+000	4.6000347E+001	1.6141094E+001	2.4956703E+000
6.000000000000000E+000	3.2000240E+001	1.6764734E+001	2.4233706E+000
6.000000000000000E+000	2.2000166E+001	1.7364822E+001	2.2914944E+000
6.000000000000000E+000	1.4998950E+001	1.7912636E+001	2.1346948E+000
6.000000000000000E+000	1.0000075E+001	1.8395012E+001	1.9848284E+000
6.000000000000000E+000	6.9988890E+000	1.8772131E+001	1.8826461E+000
6.000000000000000E+000	4.9988737E+000	1.9081287E+001	1.8483953E+000
6.000000000000000E+000	2.9988587E+000	1.9545965E+001	1.9061285E+000
6.000000000000000E+000	2.0000150E+000	1.9937305E+001	2.0688860E+000
6.000000000000000E+000	9.9884343E-001	2.0629391E+001	2.5910761E+000
6.000000000000000E+000	9.9884343E-001	2.0648624E+001	2.5958235E+000
6.000000000000000E+000	0.0000000E+000	0.0000000E+000	0.0000000E+000
7.000000000000000E+000	9.9979990E+003	8.0328827E+000	1.7525907E+000
7.000000000000000E+000	6.8129990E+003	8.6147804E+000	1.9884820E+000
7.000000000000000E+000	4.6420000E+003	9.1324368E+000	2.0396011E+000
7.000000000000000E+000	3.1620007E+003	9.6485271E+000	2.0668375E+000
7.000000000000000E+000	2.1540000E+003	1.0150679E+001	2.1003356E+000
7.000000000000000E+000	1.4679995E+003	1.0662334E+001	2.1556673E+000
7.000000000000000E+000	9.9800061E+002	1.1191978E+001	2.2210798E+000
7.000000000000000E+000	6.8099933E+002	1.1724418E+001	2.2889245E+000
7.000000000000000E+000	4.6399887E+002	1.2299567E+001	2.3521512E+000
7.000000000000000E+000	3.1600006E+002	1.2904692E+001	2.4133735E+000
7.000000000000000E+000	2.1500046E+002	1.3515656E+001	2.4601343E+000
7.000000000000000E+000	1.4699995E+002	1.4127939E+001	2.4983082E+000
7.000000000000000E+000	1.0200077E+002	1.4730711E+001	2.5185194E+000
7.000000000000000E+000	6.8000511E+001	1.5425913E+001	2.5246549E+000
7.000000000000000E+000	4.6000347E+001	1.6104794E+001	2.4970427E+000
7.000000000000000E+000	3.2000240E+001	1.6719168E+001	2.4267263E+000
7.000000000000000E+000	2.2000166E+001	1.7331629E+001	2.3027616E+000
7.000000000000000E+000	1.4998950E+001	1.7875582E+001	2.1318390E+000
7.000000000000000E+000	1.0000075E+001	1.8374458E+001	1.9832244E+000
7.000000000000000E+000	6.9988890E+000	1.8741854E+001	1.8980080E+000
7.000000000000000E+000	4.9988737E+000	1.9059544E+001	1.8429867E+000
7.000000000000000E+000	2.9988587E+000	1.9521358E+001	1.9095551E+000
7.000000000000000E+000	2.0000150E+000	1.9906111E+001	2.0677500E+000
7.000000000000000E+000	9.9884343E-001	2.0618464E+001	2.5550854E+000
7.000000000000000E+000	9.9884343E-001	2.0617924E+001	2.6001415E+000
7.000000000000000E+000	0.0000000E+000	0.0000000E+000	0.0000000E+000
8.000000000000000E+000	9.9979990E+003	8.1640749E+000	2.0577974E+000
8.000000000000000E+000	6.8129990E+003	8.6270456E+000	1.9951873E+000
8.000000000000000E+000	4.6420000E+003	9.1550903E+000	2.0513670E+000
8.000000000000000E+000	3.1620007E+003	9.6718245E+000	2.0739708E+000
8.000000000000000E+000	2.1540000E+003	1.0173650E+001	2.1071434E+000
8.000000000000000E+000	1.4679995E+003	1.0679577E+001	2.1506040E+000
8.000000000000000E+000	9.9800061E+002	1.1210670E+001	2.2222016E+000
8.000000000000000E+000	6.8099933E+002	1.1745635E+001	2.2846875E+000
8.000000000000000E+000	4.6399887E+002	1.2322432E+001	2.3579583E+000
8.000000000000000E+000	3.1600006E+002	1.2915112E+001	2.4205389E+000
8.000000000000000E+000	2.1500046E+002	1.3536083E+001	2.4656417E+000
8.000000000000000E+000	1.4699995E+002	1.4157913E+001	2.4985683E+000
8.000000000000000E+000	1.0200077E+002	1.4753315E+001	2.5219250E+000
8.000000000000000E+000	6.8000511E+001	1.5442667E+001	2.5282164E+000
8.000000000000000E+000	4.6000347E+001	1.6129213E+001	2.5021329E+000
8.000000000000000E+000	3.2000240E+001	1.6749512E+001	2.4308901E+000
8.000000000000000E+000	2.2000166E+001	1.7352833E+001	2.3000410E+000
8.000000000000000E+000	1.4998950E+001	1.7914930E+001	2.1547129E+000
8.000000000000000E+000	1.0000075E+001	1.8403719E+001	1.9863749E+000
8.000000000000000E+000	6.9988890E+000	1.8794664E+001	1.8903792E+000
8.000000000000000E+000	4.9988737E+000	1.9102642E+001	1.8512822E+000
8.000000000000000E+000	2.9988587E+000	1.9560772E+001	1.9150703E+000
8.000000000000000E+000	2.0000150E+000	1.9935951E+001	2.0815876E+000
8.000000000000000E+000	9.9884343E-001	2.0741821E+001	2.5459025E+000
8.000000000000000E+000	9.9884343E-001	2.0665665E+001	2.5935822E+000
8.000000000000000E+000	0.0000000E+000	0.0000000E+000	0.0000000E+000
9.000000000000000E+000	9.9979990E+003	8.1004715E+000	2.0494246E+000
9.000000000000000E+000	6.8129990E+003	8.6754789E+000	2.0083554E+000
9.000000000000000E+000	4.6420000E+003	9.2046986E+000	2.0544944E+000
9.000000000000000E+000	3.1620007E+003	9.7132473E+000	2.0741298E+000
9.000000000000000E+000	2.1540000E+003	1.0219223E+001	2.1088564E+000
9.000000000000000E+000	1.4679995E+003	1.0722935E+001	2.1580262E+000
9.000000000000000E+000	9.9800061E+002	1.1256787E+001	2.2136030E+000
9.000000000000000E+000	6.8099933E+002	1.1797051E+001	2.2902102E+000
9.000000000000000E+000	4.6399887E+002	1.2366982E+001	2.3532622E+000
9.000000000000000E+000	3.1600006E+002	1.2960938E+001	2.4205501E+000
9.000000000000000E+000	2.1500046E+002	1.3578023E+001	2.4646976E+000
9.000000000000000E+000	1.4699995E+002	1.4196308E+001	2.5011094E+000
9.000000000000000E+000	1.0200077E+002	1.4796452E+001	2.5287466E+000
9.000000000000000E+000	6.8000511E+001	1.5489399E+001	2.5364540E+000
9.000000000000000E+000	4.6000347E+001	1.6172693E+001	2.5191622E+000
9.000000000000000E+000	3.2000240E+001	1.6807684E+001	2.4442182E+000
9.000000000000000E+000	2.2000166E+001	1.7406261E+001	2.3287127E+000
9.000000000000000E+000	1.4998950E+001	1.7976805E+001	2.1731255E+000
9.000000000000000E+000	1.0000075E+001	1.8482283E+001	2.0134525E+000
9.000000000000000E+000	6.9988890E+000	1.8865438E+001	1.9121026E+000
9.000000000000000E+000	4.9988737E+000	1.9177830E+001	1.8723741E+000
9.000000000000000E+000	2.9988587E+000	1.9657204E+001	1.9314586E+000
9.000000000000000E+000	2.0000150E+000	2.0027029E+001	2.0837991E+000
9.000000000000000E+000	9.9884343E-001	2.0794436E+001	2.5469253E+000
9.000000000000000E+000	9.9884343E-001	2.0733883E+001	2.5815687E+000
9.000000000000000E+000	0.0000000E+000	0.0000000E+000	0.0000000E+000
1.000000000000000E+001	9.9979990E+003	8.1993732E+000	2.0757356E+000
1.000000000000000E+001	6.8129990E+003	8.7199068E+000	2.0148559E+000
1.000000000000000E+001	4.6420000E+003	9.2451611E+000	2.0514243E+000
1.000000000000000E+001	3.1620007E+003	9.7603636E+000	2.0721853E+000
1.000000000000000E+001	2.1540000E+003	1.0266538E+001	2.1021085E+000
1.000000000000000E+001	1.4679995E+003	1.0761335E+001	2.1427615E+000
1.000000000000000E+001	9.9800061E+002	1.1283536E+001	2.2005198E+000
1.000000000000000E+001	6.8099933E+002	1.1820297E+001	2.2753439E+000
1.000000000000000E+001	4.6399887E+002	1.2388584E+001	2.3449085E+000
1.000000000000000E+001	3.1600006E+002	1.2984048E+001	2.4118106E+000
1.000000000000000E+001	2.1500046E+002	1.3600524E+001	2.4612565E+000
1.000000000000000E+001	1.4699995E+002	1.4216749E+001	2.5000391E+000
1.000000000000000E+001	1.0200077E+002	1.4822667E+001	2.5304375E+000
1.000000000000000E+001	6.8000511E+001	1.5513655E+001	2.5368273E+000
1.000000000000000E+001	4.6000347E+001	1.6194387E+001	2.5172479E+000
1.000000000000000E+001	3.2000240E+001	1.6828909E+001	2.4529552E+000
1.000000000000000E+001	2.2000166E+001	1.7440701E+001	2.3314562E+000
1.000000000000000E+001	1.4998950E+001	1.8004591E+001	2.1857357E+000
1.000000000000000E+001	1.0000075E+001	1.8514360E+001	2.0164032E+000
1.000000000000000E+001	6.9988890E+000	1.8903872E+001	1.9119146E+000
1.000000000000000E+001	4.9988737E+000	1.9226389E+001	1.8797492E+000
1.000000000000000E+001	2.9988587E+000	1.9666212E+001	1.9155830E+000
1.000000000000000E+001	2.0000150E+000	2.0056612E+001	2.0592384E+000
1.000000000000000E+001	9.9884343E-001	2.0784863E+001	2.6524913E+000
1.000000000000000E+001	9.9884343E-001	2.0766768E+001	2.5642014E+000
1.000000000000000E+001	0.0000000E+000	0.0000000E+000	0.0000000E+000
1.100000000000000E+001	9.9979990E+003	8.3151560E+000	1.9095668E+000
1.100000000000000E+001	6.8129990E+003	8.7101545E+000	2.0157528E+000
1.100000000000000E+001	4.6420000E+003	9.2369061E+000	2.0520680E+000
1.100000000000000E+001	3.1620007E+003	9.7484589E+000	2.0766370E+000
1.100000000000000E+001	2.1540000E+003	1.0251688E+001	2.1032035E+000
1.100000000000000E+001	1.4679995E+003	1.0750285E+001	2.1490417E+000
1.100000000000000E+001	9.9800061E+002	1.1272316E+001	2.2176869E+000
1.100000000000000E+001	6.8099933E+002	1.1815835E+001	2.2822628E+000
1.100000000000000E+001	4.6399887E+002	1.2388755E+001	2.3547854E+000
1.100000000000000E+001	3.1600006E+002	1.2981583E+001	2.4142911E+000
1.100000000000000E+001	2.1500046E+002	1.3588543E+001	2.4579782E+000
1.100000000000000E+001	1.4699995E+002	1.4206367E+001	2.5068586E+000
1.100000000000000E+001	1.0200077E+002	1.4818300E+001	2.5299339E+000
1.100000000000000E+001	6.8000511E+001	1.5497123E+001	2.5418444E+000
1.100000000000000E+001	4.6000347E+001	1.6189955E+001	2.5223591E+000
1.100000000000000E+001	3.2000240E+001	1.6816328E+001	2.4676707E+000
1.100000000000000E+001	2.2000166E+001	1.7440102E+001	2.3350770E+000
1.100000000000000E+001	1.4998950E+001	1.8005287E+001	2.1970947E+000
1.100000000000000E+001	1.0000075E+001	1.8517790E+001	2.0314925E+000
1.100000000000000E+001	6.9988890E+000	1.8903969E+001	1.9224622E+000
1.100000000000000E+001	4.9988737E+000	1.9226568E+001	1.8859775E+000
1.100000000000000E+001	2.9988587E+000	1.9707571E+001	1.9178827E+000
1.100000000000000E+001	2.0000150E+000	2.0082115E+001	2.0560269E+000
1.100000000000000E+001	9.9884343E-001	2.0772287E+001	2.5812984E+000
1.100000000000000E+001	9.9884343E-001	2.0783007E+001	2.5522931E+000
1.100000000000000E+001	0.0000000E+000	0.0000000E+000	0.0000000E+000