cycle number,freq/Hz,Re(Z)/Ohm,-Im(Z)/Ohm
2.0,9997.999,8.2634459,2.4759202
2.0,6812.999,9.1047192,2.45526
2.0,4642.0,9.7477922,2.3926387
2.0,3162.0007,10.342221,2.3062809
2.0,2154.0,10.875602,2.2325697
2.0,1467.9995,11.374546,2.1861048
2.0,998.00061,11.873951,2.1746461
2.0,680.99933,12.365457,2.2029955
2.0,463.99887,12.882859,2.2578564
2.0,316.00006,13.432317,2.3248963
2.0,215.00046,14.014553,2.4004512
2.0,146.99995,14.634036,2.4567428
2.0,102.00077,15.255761,2.4968708
2.0,68.000511,15.960679,2.4876821
2.0,46.000347,16.643696,2.4027638
2.0,32.00024,17.242905,2.2584088
2.0,22.000166,17.793633,2.0838587
2.0,14.99895,18.256384,1.8742639
2.0,10.000075,18.659798,1.708407
2.0,6.998889,18.966557,1.5948033
2.0,4.9988737,19.215767,1.5636779
2.0,2.9988587,19.600765,1.6190747
2.0,2.000015,19.888006,1.7716929
2.0,0.99884343,20.537868,2.2189996
2.0,0.99884343,20.493504,2.270349
2.0,0.0,0.0,0.0
3.0,9997.999,8.239274,2.4857697
3.0,6812.999,8.8358669,2.341481
3.0,4642.0,9.4538727,2.2596023
3.0,3162.0007,10.018753,2.1513631
3.0,2154.0,10.51767,2.0388496
3.0,1467.9995,10.968482,1.9559234
3.0,998.00061,11.387075,1.9083787
3.0,680.99933,11.797213,1.91537
3.0,463.99887,12.223809,1.9622695
3.0,316.00006,12.675379,2.0473487
3.0,215.00046,13.178837,2.1472368
3.0,146.99995,13.728333,2.2388856
3.0,102.00077,14.294147,2.3162022
3.0,68.000511,14.951249,2.3654025
3.0,46.000347,15.604522,2.3571272
3.0,32.00024,16.206533,2.2757034
3.0,22.000166,16.774378,2.1472478
3.0,14.99895,17.29377,1.9811288
3.0,10.000075,17.750839,1.8281946
3.0,6.998889,18.07996,1.7290398
3.0,4.9988737,18.365112,1.6816733
3.0,2.9988587,18.77401,1.7244785
3.0,2.000015,19.102478,1.870893
3.0,0.99884343,19.838751,2.4084716
3.0,0.99884343,19.736753,2.3547075
3.0,0.0,0.0,0.0
4.0,9997.999,8.1971941,2.27665
4.0,6812.999,8.6990232,2.28529
4.0,4642.0,9.3039122,2.2081983
4.0,3162.0007,9.8453503,2.103318
4.0,2154.0,10.33479,2.0072289
4.0,1467.9995,10.782977,1.9375217
4.0,998.00061,11.212744,1.905391
4.0,680.99933,11.60849,1.9174745
4.0,463.99887,12.034514,1.9644408
4.0,316.00006,12.502433,2.0530627
4.0,215.00046,13.010406,2.1600301
4.0,146.99995,13.56062,2.251776
4.0,102.00077,14.127076,2.3292689
4.0,68.000511,14.787813,2.3724494
4.0,46.000347,15.439634,2.3602269
4.0,32.00024,16.039354,2.296129
4.0,22.000166,16.626827,2.1710846
4.0,14.99895,17.140882,2.0090694
4.0,10.000075,17.610458,1.8482945
4.0,6.998889,17.952148,1.7500488
4.0,4.9988737,18.246674,1.6958041
4.0,2.9988587,18.675314,1.7308682
4.0,2.000015,18.996788,1.857501
4.0,0.99884343,19.684557,2.2990253
4.0,0.99884343,19.617748,2.3401666
4.0,0.0,0.0,0.0
5.0,9997.999,7.9777694,2.4066749
5.0,6812.999,8.662612,2.2513003
5.0,4642.0,9.2532778,2.1619203
5.0,3162.0007,9.7796087,2.0576763
5.0,2154.0,10.252081,1.9616245
5.0,1467.9995,10.682188,1.8937429
5.0,998.00061,11.08897,1.8657109
5.0,680.99933,11.494225,1.8849574
5.0,463.99887,11.911658,1.9473025
5.0,316.00006,12.372471,2.0406773
5.0,215.00046,12.884532,2.1418204
5.0,146.99995,13.430323,2.2414165
5.0,102.00077,14.000293,2.312566
5.0,68.000511,14.664348,2.3460717
5.0,46.000347,15.306282,2.3376474
5.0,32.00024,15.905516,2.270858
5.0,22.000166,16.478971,2.1372387
5.0,14.99895,16.983688,1.9685242
5.0,10.000075,17.443815,1.8018904
5.0,6.998889,17.769089,1.7095585
5.0,4.9988737,18.055122,1.6460792
5.0,2.9988587,18.456219,1.6772418
5.0,2.000015,18.791218,1.7973274
5.0,0.99884343,19.377056,2.2306185
5.0,0.99884343,19.383961,2.2557061
5.0,0.0,0.0,0.0
6.0,9997.999,7.9177132,2.3622155
6.0,6812.999,8.6078854,2.1870575
6.0,4642.0,9.1795235,2.1049924
6.0,3162.0007,9.6824169,1.9999099
6.0,2154.0,10.138728,1.9068395
6.0,1467.9995,10.554583,1.8480608
6.0,998.00061,10.959514,1.8234054
6.0,680.99933,11.34346,1.8514864
6.0,463.99887,11.768437,1.9269023
6.0,316.00006,12.223274,2.0246773
6.0,215.00046,12.736909,2.1328239
6.0,146.99995,13.286536,2.2297413
6.0,102.00077,13.853939,2.2934215
6.0,68.000511,14.505741,2.3324058
6.0,46.000347,15.148276,2.312078
6.0,32.00024,15.731894,2.2304215
6.0,22.000166,16.296221,2.0960975
6.0,14.99895,16.806841,1.9382565
6.0,10.000075,17.242012,1.7707731
6.0,6.998889,17.576849,1.6542522
6.0,4.9988737,17.847878,1.6144862
6.0,2.9988587,18.232952,1.6457061
6.0,2.000015,18.549791,1.751596
6.0,0.99884343,19.124798,2.184967
6.0,0.99884343,19.142006,2.1896088
6.0,0.0,0.0,0.0
7.0,9997.999,7.8412113,2.1505036
7.0,6812.999,8.5995798,2.1743109
7.0,4642.0,9.1598215,2.0888162
7.0,3162.0007,9.6640673,1.9755731
7.0,2154.0,10.105484,1.8824058
7.0,1467.9995,10.51285,1.820385
7.0,998.00061,10.901702,1.807029
7.0,680.99933,11.29256,1.8296256
7.0,463.99887,11.699976,1.9025964
7.0,316.00006,12.162983,2.0053871
7.0,215.00046,12.667988,2.1186466
7.0,146.99995,13.2178,2.2166135
7.0,102.00077,13.779763,2.286411
7.0,68.000511,14.433661,2.3205721
7.0,46.000347,15.069063,2.2933545
7.0,32.00024,15.656549,2.2152021
7.0,22.000166,16.216803,2.0740614
7.0,14.99895,16.711428,1.9182088
7.0,10.000075,17.145243,1.7427031
7.0,6.998889,17.476433,1.6360074
7.0,4.9988737,17.743475,1.5947454
7.0,2.9988587,18.111547,1.6222299
7.0,2.000015,18.415533,1.7416072
7.0,0.99884343,19.080015,2.2089255
7.0,0.99884343,19.004303,2.1632752
7.0,0.0,0.0,0.0
8.0,9997.999,8.0873661,2.1937349
8.0,6812.999,8.560009,2.159694
8.0,4642.0,9.1186237,2.0713465
8.0,3162.0007,9.6184826,1.9666688
8.0,2154.0,10.064819,1.8784829
8.0,1467.9995,10.476255,1.8187249
8.0,998.00061,10.85697,1.7916517
8.0,680.99933,11.237691,1.8275921
8.0,463.99887,11.653241,1.899012
8.0,316.00006,12.112657,2.0064197
8.0,215.00046,12.617473,2.1132178
8.0,146.99995,13.166848,2.2146165
8.0,102.00077,13.724666,2.279361
8.0,68.000511,14.380436,2.3081565
8.0,46.000347,15.016571,2.293505
8.0,32.00024,15.598644,2.2113008
8.0,22.000166,16.161341,2.0729544
8.0,14.99895,16.639957,1.9017907
8.0,10.000075,17.080652,1.7365874
8.0,6.998889,17.403399,1.6288429
8.0,4.9988737,17.660494,1.5783387
8.0,2.9988587,18.040211,1.5929724
8.0,2.000015,18.352249,1.7077192
8.0,0.99884343,18.918198,2.1957257
8.0,0.99884343,18.910902,2.1298618
8.0,0.0,0.0,0.0
9.0,9997.999,8.0325127,2.1232498
9.0,6812.999,8.5077362,2.1446416
9.0,4642.0,9.0659313,2.0630686
9.0,3162.0007,9.5641823,1.9614989
9.0,2154.0,10.012431,1.8696159
9.0,1467.9995,10.416272,1.810395
9.0,998.00061,10.808675,1.7937732
9.0,680.99933,11.187334,1.8160475
9.0,463.99887,11.601633,1.8913999
9.0,316.00006,12.056658,1.998595
9.0,215.00046,12.568069,2.1063683
9.0,146.99995,13.100636,2.1974783
9.0,102.00077,13.656617,2.264703
9.0,68.000511,14.312125,2.2877901
9.0,46.000347,14.938517,2.27632
9.0,32.00024,15.518817,2.1968546
9.0,22.000166,16.0721,2.0569327
9.0,14.99895,16.557467,1.8909562
9.0,10.000075,16.99925,1.7308664
9.0,6.998889,17.313753,1.6212381
9.0,4.9988737,17.582939,1.5587548
9.0,2.9988587,17.958044,1.5789934
9.0,2.000015,18.265963,1.7014843
9.0,0.99884343,18.827696,2.0955505
9.0,0.99884343,18.837463,2.1002445
9.0,0.0,0.0,0.0
10.0,9997.999,8.025527,2.1429102
10.0,6812.999,8.5020676,2.1402626
10.0,4642.0,9.0577726,2.0636702
10.0,3162.0007,9.5572577,1.9639171
10.0,2154.0,10.005307,1.8724848
10.0,1467.9995,10.415428,1.809912
10.0,998.00061,10.794166,1.7880467
10.0,680.99933,11.185042,1.8177885
10.0,463.99887,11.596407,1.8906443
10.0,316.00006,12.04742,1.9875127
10.0,215.00046,12.550178,2.0960751
10.0,146.99995,13.0892,2.1926124
10.0,102.00077,13.645535,2.2631619
10.0,68.000511,14.292841,2.2944231
10.0,46.000347,14.930423,2.2770953
10.0,32.00024,15.50145,2.1967955
10.0,22.000166,16.059179,2.0579085
10.0,14.99895,16.550497,1.9004592
10.0,10.000075,16.985579,1.7316358
10.0,6.998889,17.313257,1.6210465
10.0,4.9988737,17.582783,1.5560615
10.0,2.9988587,17.943815,1.5877978
10.0,2.000015,18.230038,1.6973916
10.0,0.99884343,18.88279,2.15713
10.0,0.99884343,18.814283,2.1041818
10.0,0.0,0.0,0.0
11.0,9997.999,7.7502456,2.1708908
11.0,6812.999,8.4962072,2.1347716
11.0,4642.0,9.0535116,2.052567
11.0,3162.0007,9.5545368,1.9538984
11.0,2154.0,10.000516,1.865584
11.0,1467.9995,10.404799,1.7969252
11.0,998.00061,10.778165,1.7809885
11.0,680.99933,11.174072,1.8099432
11.0,463.99887,11.580596,1.8817706
11.0,316.00006,12.034709,1.9845281
11.0,215.00046,12.531695,2.0953374
11.0,146.99995,13.065223,2.187953
11.0,102.00077,13.624095,2.2495418
11.0,68.000511,14.27474,2.2939618
11.0,46.000347,14.901013,2.2746427
11.0,32.00024,15.489356,2.2040141
11.0,22.000166,16.041346,2.0645034
11.0,14.99895,16.534952,1.9016584
11.0,10.000075,16.969858,1.7332923
11.0,6.998889,17.298248,1.628975
11.0,4.9988737,17.570616,1.5675
11.0,2.9988587,17.945829,1.5779172
11.0,2.000015,18.257584,1.6980486
11.0,0.99884343,18.852661,2.0582905
11.0,0.99884343,18.801214,2.0954547
11.0,0.0,0.0,0.0
