cycle number,freq/Hz,Re(Z)/Ohm,-Im(Z)/Ohm,|Z|/Ohm,Phase(Z)/deg
5.0,9997.999,10.355762,2.5506098,10.665243408028719,-13.836471281940595
5.0,6812.999,10.913526,2.7126355,11.245596520795873,-13.95841364430404
5.0,4642.0,11.676,2.8373337,12.01579953749045,-13.658452548102293
5.0,3162.0007,12.448238,2.8977818,12.781070716690964,-13.104305402032221
5.0,2154.0,13.207463,2.9107306,13.524401336922288,-12.428473338435172
5.0,1467.9995,13.938912,2.9031689,14.238035588018144,-11.765251145383786
5.0,998.00061,14.660569,2.8911457,14.942924976803889,-11.155898438785472
5.0,680.99933,15.369028,2.8963408,15.639559191183382,-10.672399516905871
5.0,463.99887,16.065773,2.8859601,16.32292338358301,-10.183663852997954
5.0,316.00006,16.770754,2.8876727,17.017545162297683,-9.769677498859076
5.0,215.00046,17.475533,2.8872738,17.7124420572166,-9.381547903824371
5.0,146.99995,18.175402,2.8903916,18.403793127041894,-9.035948166765287
5.0,102.00077,18.875151,2.8970773,19.096187634053457,-8.726020412595775
5.0,68.000511,19.660534,2.8883214,19.871562537325893,-8.357517665252105
5.0,46.000347,20.433744,2.8239462,20.627955933587565,-7.868443274545101
5.0,32.00024,21.125704,2.7148981,21.29943757917095,-7.3230346618910405
5.0,22.000166,21.774248,2.5605278,21.924282852127156,-6.706856103565224
5.0,14.99895,22.366299,2.3829374,22.492881576394783,-6.08143305046213
5.0,10.000075,22.912273,2.2420449,23.021707568296165,-5.588796735996401
5.0,6.998889,23.318996,2.1536624,23.418237256061563,-5.276672559386102
5.0,4.9988737,23.70237,2.149024,23.799593437062658,-5.180674438501993
5.0,2.9988587,24.222399,2.2755501,24.32905139073061,-5.36684584073473
5.0,2.000015,24.676558,2.492254,24.80209355534085,-5.767135897399222
5.0,0.99884343,25.702682,3.1213818,25.891521514474483,-6.924199868458631
5.0,0.99884343,25.564608,3.1302667,25.7555382744526,-6.980851029843185
5.0,0.0,0.0,0.0,0.0,
6.0,9997.999,9.8907738,2.4553742,10.190989590063964,-13.941778434396086
6.0,6812.999,10.470343,2.4673088,10.757123000700812,-13.259696556402414
6.0,4642.0,11.168089,2.5152228,11.447818903422645,-12.692115952951205
6.0,3162.0007,11.835855,2.5168889,12.100503845541649,-12.005095861601264
6.0,2154.0,12.475012,2.4722841,12.717630010000166,-11.209568966890222
6.0,1467.9995,13.069947,2.4215968,13.292390516554171,-10.496716658802244
6.0,998.00061,13.634775,2.3957777,13.843657034484865,-9.965758348396095
6.0,680.99933,14.199562,2.404243,14.401664674435834,-9.6100690129314
6.0,463.99887,14.7599,2.4299297,14.95858303305972,-9.348774118349276
6.0,316.00006,15.335853,2.4755833,15.534378002123157,-9.169843031146252
6.0,215.00046,15.950069,2.5334072,16.15001093330196,-9.025104553732222
6.0,146.99995,16.580647,2.5891593,16.78158517004235,-8.875373922651928
6.0,102.00077,17.215698,2.6123493,17.412771935921473,-8.628369324675239
6.0,68.000511,17.948528,2.6382408,18.141388367089455,-8.361984607038814
6.0,46.000347,18.652296,2.598217,18.832389058499853,-7.930126425307829
6.0,32.00024,19.309193,2.5192752,19.4728447291243,-7.43340598825085
6.0,22.000166,19.920593,2.3928983,20.063797939218585,-6.849655175368426
6.0,14.99895,20.485016,2.2244554,20.605438174104556,-6.197430574856521
6.0,10.000075,20.997194,2.0838006,21.100340774835754,-5.667581810336197
6.0,6.998889,21.387991,1.9954972,21.480879127523828,-5.330259241439194
6.0,4.9988737,21.732279,1.9727721,21.82163560076053,-5.186872942834007
6.0,2.9988587,22.203255,2.0554602,22.298193855754526,-5.289066102520798
6.0,2.000015,22.626089,2.2270572,22.735428019018972,-5.6214435457748575
6.0,0.99884343,23.457296,2.9009881,23.63599939896677,-7.050031549718264
6.0,0.99884343,23.406532,2.8147523,23.575168520657055,-6.857175501899154
6.0,0.0,0.0,0.0,0.0,
7.0,9997.999,9.391942,2.1046529,9.624870823073026,-12.630820319632141
7.0,6812.999,10.180089,2.3021293,10.437145747848858,-12.742559409364574
7.0,4642.0,10.821384,2.3360033,11.070648720516196,-12.181471740919664
7.0,3162.0007,11.436806,2.3227024,11.670281826956955,-11.480072521156666
7.0,2154.0,12.022222,2.2818656,12.236859582170064,-10.747126970404254
7.0,1467.9995,12.559003,2.2379122,12.756833751715895,-10.103595072106735
7.0,998.00061,13.089932,2.2081757,13.274877012111805,-9.575229585469911
7.0,680.99933,13.595092,2.2378037,13.778036575949335,-9.347284318023114
7.0,463.99887,14.122108,2.2687812,14.303192038742171,-9.126841187221178
7.0,316.00006,14.661955,2.3189731,14.844209667764352,-8.987600780707194
7.0,215.00046,15.245852,2.3849311,15.43126370579063,-8.890808760882816
7.0,146.99995,15.840634,2.4537435,16.029552167348537,-8.80524121881811
7.0,102.00077,16.444811,2.4937689,16.63281972944841,-8.622905649845073
7.0,68.000511,17.132069,2.5318801,17.318146698233534,-8.406664517466904
7.0,46.000347,17.828524,2.5067232,18.003886503196867,-8.003427366772259
7.0,32.00024,18.450266,2.4277287,18.609303643918537,-7.496047268406858
7.0,22.000166,19.053858,2.3034451,19.19258617312628,-6.893109213822652
7.0,14.99895,19.593079,2.1442194,19.71005889224021,-6.245458227563836
7.0,10.000075,20.103628,2.0085132,20.20371213507454,-5.705373881599301
7.0,6.998889,20.480671,1.9169101,20.57018300700611,-5.3470816180591525
7.0,4.9988737,20.802469,1.9005597,20.889108254524057,-5.220177297355966
7.0,2.9988587,21.27758,1.9781536,21.36933556106958,-5.311459062590475
7.0,2.000015,21.686308,2.1593978,21.793553026744146,-5.686439821994249
7.0,0.99884343,22.45842,2.6404073,22.61310194569275,-6.70540857179181
7.0,0.99884343,22.423481,2.6862876,22.58381369980001,-6.831362235709388
7.0,0.0,0.0,0.0,0.0,
8.0,9997.999,9.301816,2.0302086,9.52079449717144,-12.312257820027305
8.0,6812.999,10.090372,2.2491527,10.338002464997833,-12.565856228005357
8.0,4642.0,10.719186,2.277523,10.95846976170145,-11.995344447515816
8.0,3162.0007,11.317834,2.262172,11.541697821773884,-11.303142811272101
8.0,2154.0,11.883327,2.2161169,12.088202294112827,-10.563719538004362
8.0,1467.9995,12.406014,2.1763091,12.595455714936987,-9.949799659258261
8.0,998.00061,12.921041,2.1541224,13.099371887150268,-9.464978021950067
8.0,680.99933,13.407549,2.1694708,13.581935566753865,-9.191345455208547
8.0,463.99887,13.922717,2.2139344,14.097643568681695,-9.03529525700428
8.0,316.00006,14.451273,2.2667091,14.627961630540046,-8.91431845913217
8.0,215.00046,15.005035,2.330323,15.184909635409557,-8.82767079586084
8.0,146.99995,15.596039,2.3999436,15.779612218704932,-8.748146801636741
8.0,102.00077,16.186478,2.4467058,16.370352449359103,-8.59560902376582
8.0,68.000511,16.859764,2.4778941,17.040880297288364,-8.360953095041516
8.0,46.000347,17.536234,2.4716098,17.709555553604726,-8.022595999094515
8.0,32.00024,18.162701,2.3973839,18.320239004428412,-7.51928311387197
8.0,22.000166,18.760065,2.2767789,18.897718406297365,-6.919749916099379
8.0,14.99895,19.300348,2.1292512,19.417444311592742,-6.2955212691133955
8.0,10.000075,19.794876,1.9868864,19.89434174386981,-5.73179595959482
8.0,6.998889,20.167313,1.9048141,20.257068652584653,-5.395612128886426
8.0,4.9988737,20.497591,1.8654511,20.582301732551006,-5.200067051119772
8.0,2.9988587,20.959352,1.9430356,21.04922382423569,-5.296463807178906
8.0,2.000015,21.334337,2.0941675,21.436871804151494,-5.606164490923445
8.0,0.99884343,22.178545,2.6517401,22.33650787108345,-6.818106441401638
8.0,0.99884343,22.072006,2.6130447,22.226143423190493,-6.751665619967153
8.0,0.0,0.0,0.0,0.0,
9.0,9997.999,9.5067797,2.1977398,9.757505854102067,-13.016745415764326
9.0,6812.999,9.9738998,2.1686556,10.206945886593667,-12.26705842367568
9.0,4642.0,10.561683,2.1987383,10.788123001911682,-11.759905857279556
9.0,3162.0007,11.133949,2.1821804,11.345780344813008,-11.089030778472175
9.0,2154.0,11.679581,2.1430144,11.874557804573962,-10.397200708052134
9.0,1467.9995,12.179682,2.1069894,12.360584854805065,-9.814584810879213
9.0,998.00061,12.67062,2.0886853,12.841620515606124,-9.360725964252476
9.0,680.99933,13.164586,2.1186228,13.333974918233341,-9.142419440082692
9.0,463.99887,13.661374,2.154459,13.83021450124896,-8.961986934138938
9.0,316.00006,14.167929,2.2091963,14.339133880432762,-8.86272556830287
9.0,215.00046,14.719686,2.281136,14.895393159936798,-8.809154252995803
9.0,146.99995,15.288241,2.3404057,15.466344484546871,-8.703574343137037
9.0,102.00077,15.8653,2.3896086,16.044250476453985,-8.565423324417376
9.0,68.000511,16.535479,2.4151356,16.710922946558885,-8.309737447852614
9.0,46.000347,17.199265,2.4031014,17.366335620357766,-7.953941024090418
9.0,32.00024,17.795837,2.3297303,17.94768669776991,-7.4584234167273715
9.0,22.000166,18.386526,2.2165883,18.51965447950833,-6.87412112283503
9.0,14.99895,18.910416,2.0648868,19.022817635404863,-6.231614812198719
9.0,10.000075,19.383514,1.9225966,19.478629127187766,-5.664480867923212
9.0,6.998889,19.752567,1.8381693,19.837912427091503,-5.31661970274593
9.0,4.9988737,20.064167,1.8080182,20.145464184660035,-5.1491186826091875
9.0,2.9988587,20.519941,1.8602568,20.604090225133145,-5.18004924883324
9.0,2.000015,20.890272,2.0026536,20.98604502224221,-5.475946907785062
9.0,0.99884343,21.583551,2.5749424,21.73660511977247,-6.803297262434279
9.0,0.99884343,21.596434,2.5269234,21.74376470130744,-6.673634488003907
9.0,0.0,0.0,0.0,0.0,
10.0,9997.999,9.5110016,1.9384316,9.706527108244282,-11.519646142825282
10.0,6812.999,9.9851379,2.1698194,10.21817474457316,-12.26004648058226
10.0,4642.0,10.578982,2.1889267,10.80306716883205,-11.690261464633375
10.0,3162.0007,11.148283,2.1679997,11.357131528131964,-11.004917581858166
10.0,2154.0,11.683068,2.1340425,11.876372143227504,-10.351591842142145
10.0,1467.9995,12.198909,2.1017692,12.378643486277067,-9.77560625944354
10.0,998.00061,12.690464,2.0884144,12.8611566836511,-9.345156311204114
10.0,680.99933,13.17458,2.1083856,13.342220505398918,-9.092196968135909
10.0,463.99887,13.667192,2.1446936,13.834444253483584,-8.918283398566802
10.0,316.00006,14.177009,2.1987386,14.346499071801837,-8.815872248205636
10.0,215.00046,14.716691,2.2610409,14.88936868846204,-8.734503434562189
10.0,146.99995,15.285397,2.3292687,15.46185157490553,-8.664374823326222
10.0,102.00077,15.861927,2.3774335,16.039105904016324,-8.52421044715682
10.0,68.000511,16.521423,2.4078462,16.69596182517747,-8.291956237533896
10.0,46.000347,17.174746,2.3862946,17.33973189188648,-7.910151542040437
10.0,32.00024,17.785011,2.3271737,17.93662046485047,-7.454814821411894
10.0,22.000166,18.35779,2.1979902,18.488905175899305,-6.82755960268421
10.0,14.99895,18.889561,2.0615041,19.001718709817748,-6.2283011661734715
10.0,10.000075,19.375301,1.9134206,19.469552312087337,-5.6399948293051825
10.0,6.998889,19.727516,1.8214298,19.811423322078202,-5.275129448444628
10.0,4.9988737,20.042843,1.8002378,20.123528807323975,-5.132504645486779
10.0,2.9988587,20.474546,1.8450341,20.55750920555014,-5.149218362569272
10.0,2.000015,20.860186,1.9839653,20.954318845197523,-5.432930688323474
10.0,0.99884343,21.551718,2.5570676,21.702883298365997,-6.766395323070406
10.0,0.99884343,21.547474,2.4893217,21.690789711459722,-6.590012881645755
10.0,0.0,0.0,0.0,0.0,
11.0,9997.999,9.1835976,2.1419833,9.430087875317211,-13.128956602155915
11.0,6812.999,9.9670057,2.1564567,10.197622670152459,-12.20831321337172
11.0,4642.0,10.558343,2.1850784,10.782076540249358,-11.69245835098901
11.0,3162.0007,11.128469,2.1629701,11.336721833821937,-10.999081471967441
11.0,2154.0,11.670203,2.1264868,11.862359974801947,-10.326856998607928
11.0,1467.9995,12.171233,2.0996888,12.351016387210182,-9.78789444303629
11.0,998.00061,12.663513,2.083529,12.833770085014379,-9.343173127540494
11.0,680.99933,13.141937,2.0993519,13.308560647643404,-9.076001601844883
11.0,463.99887,13.634439,2.1327724,13.800240757136187,-8.890468346344393
11.0,316.00006,14.150058,2.1888933,14.318358679756171,-8.793469558859886
11.0,215.00046,14.680994,2.2464867,14.85187824220603,-8.699919662042186
11.0,146.99995,15.246696,2.3113196,15.420892879783588,-8.62010839281013
11.0,102.00077,15.813479,2.3539448,15.987719481054452,-8.466698946874091
11.0,68.000511,16.465118,2.3953297,16.638440886261733,-8.277267655702186
11.0,46.000347,17.125532,2.3826697,17.290487592382178,-7.920697191494811
11.0,32.00024,17.718031,2.3100555,17.867987545609083,-7.428253657495096
11.0,22.000166,18.294914,2.1871727,18.42518935281321,-6.817403539436209
11.0,14.99895,18.827707,2.0442836,18.93836440443255,-6.196812113490744
11.0,10.000075,19.295036,1.9048227,19.388830902345074,-5.638020746622005
11.0,6.998889,19.656101,1.8110634,19.73935807368164,-5.2642251406684295
11.0,4.9988737,19.971273,1.7676109,20.049343967679537,-5.057936297059403
11.0,2.9988587,20.412645,1.847834,20.496111006422197,-5.172544149938851
11.0,2.000015,20.77351,1.9912961,20.868732062058186,-5.475498509566846
11.0,0.99884343,21.566113,2.4964457,21.710123699827637,-6.603044480734768
11.0,0.99884343,21.47452,2.4809167,21.617353142851204,-6.590073911491798
11.0,0.0,0.0,0.0,0.0,
12.0,9997.999,9.2175961,2.1648595,9.468405067247359,-13.217037002399481
12.0,6812.999,10.002913,2.1696303,10.235505074213343,-12.237883246166943
12.0,4642.0,10.591195,2.188288,10.814897868170972,-11.673837790077261
12.0,3162.0007,11.166403,2.1655843,11.374458726410479,-10.97555068153875
12.0,2154.0,11.693372,2.1204829,11.884081641404874,-10.2783555283241
12.0,1467.9995,12.19915,2.0907745,12.37701897600348,-9.725259096103532
12.0,998.00061,12.681719,2.0698581,12.849525646851582,-9.269844137064451
12.0,680.99933,13.171031,2.0854805,13.335114792113385,-8.997428848247889
12.0,463.99887,13.662635,2.1234109,13.826657911204132,-8.83408441897357
12.0,316.00006,14.167459,2.1729681,14.333132416896824,-8.719924076561743
12.0,215.00046,14.708225,2.2349675,14.87706161769458,-8.640203165832842
12.0,146.99995,15.25742,2.29791,15.42949303847991,-8.56490707662036
12.0,102.00077,15.819009,2.3508193,15.992729508227589,-8.45270653055497
12.0,68.000511,16.465708,2.3782499,16.63657454309973,-8.218765639877757
12.0,46.000347,17.124556,2.3746572,17.28841852265984,-7.894841923967814
12.0,32.00024,17.718575,2.3069603,17.86812709425364,-7.418186389711817
12.0,22.000166,18.296873,2.1831436,18.426656711306855,-6.8042409779878055
12.0,14.99895,18.821732,2.0401843,18.93198213230169,-6.186430400063768
12.0,10.000075,19.297935,1.8947049,19.390724636338607,-5.607427710095765
12.0,6.998889,19.659317,1.8052288,19.742026135299245,-5.2465069040184344
12.0,4.9988737,19.964767,1.7634072,20.042493016521192,-5.047605636745708
12.0,2.9988587,20.405195,1.823676,20.486526722238715,-5.107133748218748
12.0,2.000015,20.780243,1.975641,20.873946835707184,-5.430960267455631
12.0,0.99884343,21.490265,2.4129488,21.625304892223983,-6.406396412340039
12.0,0.99884343,21.451067,2.4534426,21.590916053516203,-6.524790303895845
12.0,0.0,0.0,0.0,0.0,
13.0,9997.999,9.2729816,2.1551154,9.520121330175142,-13.08373351902362
13.0,6812.999,10.058417,2.1725352,10.290367424981872,-12.188182180076778
13.0,4642.0,10.656957,2.186326,10.878913267331669,-11.593638257847026
13.0,3162.0007,11.230374,2.1594057,11.436097811625629,-10.884141563930056
13.0,2154.0,11.752987,2.1175745,11.94222865235879,-10.213591398330712
13.0,1467.9995,12.254475,2.0808771,12.429891674142997,-9.637213252672712
13.0,998.00061,12.745479,2.0665824,12.91193237882815,-9.209922585787247
13.0,680.99933,13.218464,2.0811584,13.381293315864001,-8.947387777855399
13.0,463.99887,13.709451,2.1163332,13.8718388447539,-8.775501583272495
13.0,316.00006,14.211564,2.1660161,14.375680055967969,-8.665886592445446
13.0,215.00046,14.745856,2.2252214,14.912809240775326,-8.581462936049887
13.0,146.99995,15.300489,2.2973735,15.472003381515377,-8.539189265163193
13.0,102.00077,15.85673,2.3414078,16.028664223159733,-8.399609710043432
13.0,68.000511,16.50704,2.3772991,16.677347528083143,-8.195233624717384
13.0,46.000347,17.155388,2.361501,17.31715982496971,-7.837713933227536
13.0,32.00024,17.758575,2.301039,17.907031203137667,-7.382874835034536
13.0,22.000166,18.33415,2.1833181,18.4636923216427,-6.791073610025065
13.0,14.99895,18.86062,2.0328286,18.96985447760151,-6.151685430446796
13.0,10.000075,19.325026,1.8961486,19.41782710330788,-5.603856437920508
13.0,6.998889,19.690928,1.8018934,19.773200684920678,-5.228506814751028
13.0,4.9988737,19.9923,1.7698548,20.070486922421267,-5.059024971441896
13.0,2.9988587,20.432489,1.8045375,20.512019947436364,-5.047100081946826
13.0,2.000015,20.809668,1.9468045,20.900534204451432,-5.344629439907895
13.0,0.99884343,21.45594,2.4199629,21.591979569297862,-6.435055686119379
13.0,0.99884343,21.476452,2.4386435,21.614462117489673,-6.478168374941045
13.0,0.0,0.0,0.0,0.0,
14.0,9997.999,9.4650373,1.9335092,9.6605066594292,-11.545481310469203
14.0,6812.999,10.074266,2.1943331,10.310476865427303,-12.287989374842695
14.0,4642.0,10.674276,2.2071781,10.900082719378585,-11.682714586621698
14.0,3162.0007,11.250287,2.1781497,11.459201267888574,-10.957375139667182
14.0,2154.0,11.787042,2.1344917,11.97874842907776,-10.264342935693616
14.0,1467.9995,12.287607,2.0884545,12.463824773520336,-9.646057196763495
14.0,998.00061,12.778921,2.0675838,12.9451042751406,-9.190607388192365
14.0,680.99933,13.253962,2.0743277,13.415302609499022,-8.894989925041823
14.0,463.99887,13.726599,2.1100562,13.887831266038605,-8.739115040307546
14.0,316.00006,14.240627,2.1547952,14.4027288979232,-8.604337958730477
14.0,215.00046,14.773127,2.2111406,14.93768469713755,-8.512450251111924
14.0,146.99995,15.318861,2.2764664,15.487084993879577,-8.452606683569472
14.0,102.00077,15.87641,2.3239305,16.045592773622616,-8.32760568618653
14.0,68.000511,16.518143,2.3572094,16.685487236634636,-8.121517909317165
14.0,46.000347,17.160051,2.3583879,17.321355137790675,-7.825409201938739
14.0,32.00024,17.759203,2.2945821,17.906825464298507,-7.362128014273229
14.0,22.000166,18.346167,2.1840756,18.475714595609134,-6.788999517544459
14.0,14.99895,18.871338,2.0219979,18.97935387250705,-6.115710166801656
14.0,10.000075,19.341057,1.8820748,19.43241342268232,-5.557943050564472
14.0,6.998889,19.690426,1.7894287,19.771568757533117,-5.19266837735157
14.0,4.9988737,19.990925,1.7524546,20.067590275882306,-5.009884679078145
14.0,2.9988587,20.426224,1.7980468,20.505209074602636,-5.030574105918975
14.0,2.000015,20.796158,1.9360857,20.886086646346854,-5.318805036341874
14.0,0.99884343,21.49634,2.4877968,21.639818999097248,-6.601539696207532
14.0,0.99884343,21.460009,2.4162922,21.595611921773873,-6.424168300254207
14.0,0.0,0.0,0.0,0.0,
