cycle number	freq/Hz	Re(Z)/Ohm	-Im(Z)/Ohm	
2.000000000000000E+000	9.9979990E+003	7.7700238E+000	2.1682734E+000
2.000000000000000E+000	6.8129990E+003	8.3546820E+000	2.1904666E+000
2.000000000000000E+000	4.6420000E+003	8.9391212E+000	2.2936046E+000
2.000000000000000E+000	3.1620007E+003	9.5161905E+000	2.3659983E+000
2.000000000000000E+000	2.1540000E+003	1.0080827E+001	2.4636457E+000
2.000000000000000E+000	1.4679995E+003	1.0677931E+001	2.5888019E+000
2.000000000000000E+000	9.9800061E+002	1.1325764E+001	2.7330830E+000
2.000000000000000E+000	6.8099933E+002	1.2018909E+001	2.9010708E+000
2.000000000000000E+000	4.6399887E+002	1.2778011E+001	3.0390401E+000
2.000000000000000E+000	3.1600006E+002	1.3605801E+001	3.1385448E+000
2.000000000000000E+000	2.1500046E+002	1.4459137E+001	3.1796284E+000
2.000000000000000E+000	1.4699995E+002	1.5296970E+001	3.1545608E+000
2.000000000000000E+000	1.0200077E+002	1.6096369E+001	3.0923193E+000
2.000000000000000E+000	6.8000511E+001	1.6949337E+001	2.9407623E+000
2.000000000000000E+000	4.6000347E+001	1.7717463E+001	2.7339444E+000
2.000000000000000E+000	3.2000240E+001	1.8361357E+001	2.5101566E+000
2.000000000000000E+000	2.2000166E+001	1.8936651E+001	2.2376387E+000
2.000000000000000E+000	1.4998950E+001	1.9403910E+001	1.9793844E+000
2.000000000000000E+000	1.0000075E+001	1.9812620E+001	1.7669697E+000
2.000000000000000E+000	6.9988890E+000	2.0110138E+001	1.6082913E+000
2.000000000000000E+000	4.9988737E+000	2.0353319E+001	1.5718843E+000
2.000000000000000E+000	2.9988587E+000	2.0695721E+001	1.5835054E+000
2.000000000000000E+000	2.0000150E+000	2.1001547E+001	1.7169291E+000
2.000000000000000E+000	9.9884343E-001	2.1557104E+001	2.2094469E+000
2.000000000000000E+000	9.9884343E-001	2.1565392E+001	2.1679561E+000
2.000000000000000E+000	0.0000000E+000	0.0000000E+000	0.0000000E+000
3.000000000000000E+000	9.9979990E+003	7.4825101E+000	1.8431820E+000
3.000000000000000E+000	6.8129990E+003	8.1108665E+000	2.0858433E+000
3.000000000000000E+000	4.6420000E+003	8.6801949E+000	2.1583540E+000
3.000000000000000E+000	3.1620007E+003	9.2264471E+000	2.2066383E+000
3.000000000000000E+000	2.1540000E+003	9.7613602E+000	2.2545650E+000
3.000000000000000E+000	1.4679995E+003	1.0296888E+001	2.3301685E+000
3.000000000000000E+000	9.9800061E+002	1.0847688E+001	2.4352334E+000
3.000000000000000E+000	6.8099933E+002	1.1455883E+001	2.5641296E+000
3.000000000000000E+000	4.6399887E+002	1.2106015E+001	2.6877034E+000
3.000000000000000E+000	3.1600006E+002	1.2819798E+001	2.7890024E+000
3.000000000000000E+000	2.1500046E+002	1.3557673E+001	2.8495052E+000
3.000000000000000E+000	1.4699995E+002	1.4308090E+001	2.8643146E+000
3.000000000000000E+000	1.0200077E+002	1.5024186E+001	2.8402956E+000
3.000000000000000E+000	6.8000511E+001	1.5801044E+001	2.7629716E+000
3.000000000000000E+000	4.6000347E+001	1.6540718E+001	2.6437595E+000
3.000000000000000E+000	3.2000240E+001	1.7183918E+001	2.4791586E+000
3.000000000000000E+000	2.2000166E+001	1.7774397E+001	2.2653401E+000
3.000000000000000E+000	1.4998950E+001	1.8282906E+001	2.0461671E+000
3.000000000000000E+000	1.0000075E+001	1.8734943E+001	1.8323021E+000
3.000000000000000E+000	6.9988890E+000	1.9063406E+001	1.7058327E+000
3.000000000000000E+000	4.9988737E+000	1.9328327E+001	1.6444050E+000
3.000000000000000E+000	2.9988587E+000	1.9719358E+001	1.6751277E+000
3.000000000000000E+000	2.0000150E+000	2.0035971E+001	1.8089694E+000
3.000000000000000E+000	9.9884343E-001	2.0699739E+001	2.2551036E+000
3.000000000000000E+000	9.9884343E-001	2.0613737E+001	2.2581789E+000
3.000000000000000E+000	0.0000000E+000	0.0000000E+000	0.0000000E+000
4.000000000000000E+000	9.9979990E+003	7.4911351E+000	1.9383663E+000
4.000000000000000E+000	6.8129990E+003	7.9236140E+000	2.0121620E+000
4.000000000000000E+000	4.6420000E+003	8.4651375E+000	2.0825841E+000
4.000000000000000E+000	3.1620007E+003	8.9905787E+000	2.1328852E+000
4.000000000000000E+000	2.1540000E+003	9.5122147E+000	2.1853487E+000
4.000000000000000E+000	1.4679995E+003	1.0025918E+001	2.2644916E+000
4.000000000000000E+000	9.9800061E+002	1.0586766E+001	2.3642824E+000
4.000000000000000E+000	6.8099933E+002	1.1167202E+001	2.4905026E+000
4.000000000000000E+000	4.6399887E+002	1.1805440E+001	2.6100070E+000
4.000000000000000E+000	3.1600006E+002	1.2498144E+001	2.7140324E+000
4.000000000000000E+000	2.1500046E+002	1.3225475E+001	2.7701261E+000
4.000000000000000E+000	1.4699995E+002	1.3951114E+001	2.7904296E+000
4.000000000000000E+000	1.0200077E+002	1.4648822E+001	2.7638726E+000
4.000000000000000E+000	6.8000511E+001	1.5407411E+001	2.6900287E+000
4.000000000000000E+000	4.6000347E+001	1.6116505E+001	2.5787199E+000
4.000000000000000E+000	3.2000240E+001	1.6750805E+001	2.4247339E+000
4.000000000000000E+000	2.2000166E+001	1.7333862E+001	2.2231457E+000
4.000000000000000E+000	1.4998950E+001	1.7839104E+001	2.0138950E+000
4.000000000000000E+000	1.0000075E+001	1.8292170E+001	1.8209248E+000
4.000000000000000E+000	6.9988890E+000	1.8607689E+001	1.6865972E+000
4.000000000000000E+000	4.9988737E+000	1.8876862E+001	1.6322072E+000
4.000000000000000E+000	2.9988587E+000	1.9250353E+001	1.6417215E+000
4.000000000000000E+000	2.0000150E+000	1.9574083E+001	1.7698795E+000
4.000000000000000E+000	9.9884343E-001	2.0191189E+001	2.1954556E+000
4.000000000000000E+000	9.9884343E-001	2.0146936E+001	2.2260561E+000
4.000000000000000E+000	0.0000000E+000	0.0000000E+000	0.0000000E+000
5.000000000000000E+000	9.9979990E+003	7.4346972E+000	1.9464840E+000
5.000000000000000E+000	6.8129990E+003	7.8709755E+000	1.9819834E+000
5.000000000000000E+000	4.6420000E+003	8.4097548E+000	2.0542896E+000
5.000000000000000E+000	3.1620007E+003	8.9315414E+000	2.1042778E+000
5.000000000000000E+000	2.1540000E+003	9.4421701E+000	2.1552241E+000
5.000000000000000E+000	1.4679995E+003	9.9525537E+000	2.2303674E+000
5.000000000000000E+000	9.9800061E+002	1.0491478E+001	2.3240094E+000
5.000000000000000E+000	6.8099933E+002	1.1064472E+001	2.4529438E+000
5.000000000000000E+000	4.6399887E+002	1.1692184E+001	2.5816627E+000
5.000000000000000E+000	3.1600006E+002	1.2366952E+001	2.6934221E+000
5.000000000000000E+000	2.1500046E+002	1.3090834E+001	2.7581058E+000
5.000000000000000E+000	1.4699995E+002	1.3822200E+001	2.7816329E+000
5.000000000000000E+000	1.0200077E+002	1.4518929E+001	2.7508862E+000
5.000000000000000E+000	6.8000511E+001	1.5288822E+001	2.6723733E+000
5.000000000000000E+000	4.6000347E+001	1.5994804E+001	2.5378680E+000
5.000000000000000E+000	3.2000240E+001	1.6607256E+001	2.3755314E+000
5.000000000000000E+000	2.2000166E+001	1.7184225E+001	2.1592340E+000
5.000000000000000E+000	1.4998950E+001	1.7665211E+001	1.9423677E+000
5.000000000000000E+000	1.0000075E+001	1.8080437E+001	1.7435594E+000
5.000000000000000E+000	6.9988890E+000	1.8385483E+001	1.6216137E+000
5.000000000000000E+000	4.9988737E+000	1.8644918E+001	1.5617598E+000
5.000000000000000E+000	2.9988587E+000	1.9000628E+001	1.5819381E+000
5.000000000000000E+000	2.0000150E+000	1.9298977E+001	1.7095859E+000
5.000000000000000E+000	9.9884343E-001	1.9936039E+001	2.1297696E+000
5.000000000000000E+000	9.9884343E-001	1.9851007E+001	2.1583049E+000
5.000000000000000E+000	0.0000000E+000	0.0000000E+000	0.0000000E+000
6.000000000000000E+000	9.9979990E+003	7.2850695E+000	1.7147378E+000
6.000000000000000E+000	6.8129990E+003	7.8391705E+000	1.9725167E+000
6.000000000000000E+000	4.6420000E+003	8.3757057E+000	2.0443416E+000
6.000000000000000E+000	3.1620007E+003	8.8936062E+000	2.0813546E+000
6.000000000000000E+000	2.1540000E+003	9.4007854E+000	2.1287000E+000
6.000000000000000E+000	1.4679995E+003	9.8993187E+000	2.1976504E+000
6.000000000000000E+000	9.9800061E+002	1.0427344E+001	2.2870202E+000
6.000000000000000E+000	6.8099933E+002	1.0977323E+001	2.4110184E+000
6.000000000000000E+000	4.6399887E+002	1.1592883E+001	2.5377932E+000
6.000000000000000E+000	3.1600006E+002	1.2260686E+001	2.6528909E+000
6.000000000000000E+000	2.1500046E+002	1.2972702E+001	2.7343957E+000
6.000000000000000E+000	1.4699995E+002	1.3702560E+001	2.7610941E+000
6.000000000000000E+000	1.0200077E+002	1.4403625E+001	2.7405524E+000
6.000000000000000E+000	6.8000511E+001	1.5154860E+001	2.6649272E+000
6.000000000000000E+000	4.6000347E+001	1.5868496E+001	2.5371623E+000
6.000000000000000E+000	3.2000240E+001	1.6488487E+001	2.3679852E+000
6.000000000000000E+000	2.2000166E+001	1.7053331E+001	2.1491001E+000
6.000000000000000E+000	1.4998950E+001	1.7528118E+001	1.9347064E+000
6.000000000000000E+000	1.0000075E+001	1.7944897E+001	1.7314603E+000
6.000000000000000E+000	6.9988890E+000	1.8253016E+001	1.6102393E+000
6.000000000000000E+000	4.9988737E+000	1.8513466E+001	1.5475353E+000
6.000000000000000E+000	2.9988587E+000	1.8871622E+001	1.5756496E+000
6.000000000000000E+000	2.0000150E+000	1.9150414E+001	1.6888926E+000
6.000000000000000E+000	9.9884343E-001	1.9804575E+001	2.1382954E+000
6.000000000000000E+000	9.9884343E-001	1.9698992E+001	2.1146259E+000
6.000000000000000E+000	0.0000000E+000	0.0000000E+000	0.0000000E+000
7.000000000000000E+000	9.9979990E+003	7.1418991E+000	1.8090107E+000
7.000000000000000E+000	6.8129990E+003	7.8061852E+000	1.9602956E+000
7.000000000000000E+000	4.6420000E+003	8.3455458E+000	2.0255573E+000
7.000000000000000E+000	3.1620007E+003	8.8639421E+000	2.0567176E+000
7.000000000000000E+000	2.1540000E+003	9.3612127E+000	2.1002285E+000
7.000000000000000E+000	1.4679995E+003	9.8622150E+000	2.1618402E+000
7.000000000000000E+000	9.9800061E+002	1.0365620E+001	2.2531753E+000
7.000000000000000E+000	6.8099933E+002	1.0912145E+001	2.3695931E+000
7.000000000000000E+000	4.6399887E+002	1.1503017E+001	2.5027480E+000
7.000000000000000E+000	3.1600006E+002	1.2163293E+001	2.6275208E+000
7.000000000000000E+000	2.1500046E+002	1.2866778E+001	2.7033584E+000
7.000000000000000E+000	1.4699995E+002	1.3587644E+001	2.7294116E+000
7.000000000000000E+000	1.0200077E+002	1.4290539E+001	2.7139337E+000
7.000000000000000E+000	6.8000511E+001	1.5045163E+001	2.6544054E+000
7.000000000000000E+000	4.6000347E+001	1.5756579E+001	2.5329583E+000
7.000000000000000E+000	3.2000240E+001	1.6373804E+001	2.3654299E+000
7.000000000000000E+000	2.2000166E+001	1.6937855E+001	2.1560414E+000
7.000000000000000E+000	1.4998950E+001	1.7426357E+001	1.9330990E+000
7.000000000000000E+000	1.0000075E+001	1.7824881E+001	1.7275351E+000
7.000000000000000E+000	6.9988890E+000	1.8144171E+001	1.5896626E+000
7.000000000000000E+000	4.9988737E+000	1.8391716E+001	1.5442953E+000
7.000000000000000E+000	2.9988587E+000	1.8740459E+001	1.5595441E+000
7.000000000000000E+000	2.0000150E+000	1.9043098E+001	1.6770817E+000
7.000000000000000E+000	9.9884343E-001	1.9663996E+001	2.0772099E+000
7.000000000000000E+000	9.9884343E-001	1.9583979E+001	2.0869622E+000
7.000000000000000E+000	0.0000000E+000	0.0000000E+000	0.0000000E+000
8.000000000000000E+000	9.9979990E+003	7.3315592E+000	1.8899007E+000
8.000000000000000E+000	6.8129990E+003	7.7446451E+000	1.9452105E+000
8.000000000000000E+000	4.6420000E+003	8.2821302E+000	2.0069287E+000
8.000000000000000E+000	3.1620007E+003	8.7933102E+000	2.0426493E+000
8.000000000000000E+000	2.1540000E+003	9.2888727E+000	2.0725629E+000
8.000000000000000E+000	1.4679995E+003	9.7703362E+000	2.1233602E+000
8.000000000000000E+000	9.9800061E+002	1.0274204E+001	2.2102847E+000
8.000000000000000E+000	6.8099933E+002	1.0798214E+001	2.3365028E+000
8.000000000000000E+000	4.6399887E+002	1.1388041E+001	2.4646347E+000
8.000000000000000E+000	3.1600006E+002	1.2037037E+001	2.5862544E+000
8.000000000000000E+000	2.1500046E+002	1.2734987E+001	2.6710474E+000
8.000000000000000E+000	1.4699995E+002	1.3450565E+001	2.7127929E+000
8.000000000000000E+000	1.0200077E+002	1.4135347E+001	2.6987419E+000
8.000000000000000E+000	6.8000511E+001	1.4899775E+001	2.6363750E+000
8.000000000000000E+000	4.6000347E+001	1.5600344E+001	2.5104947E+000
8.000000000000000E+000	3.2000240E+001	1.6215433E+001	2.3534157E+000
8.000000000000000E+000	2.2000166E+001	1.6770800E+001	2.1411877E+000
8.000000000000000E+000	1.4998950E+001	1.7256382E+001	1.9273241E+000
8.000000000000000E+000	1.0000075E+001	1.7669966E+001	1.7198472E+000
8.000000000000000E+000	6.9988890E+000	1.7970312E+001	1.6063167E+000
8.000000000000000E+000	4.9988737E+000	1.8219189E+001	1.5354159E+000
8.000000000000000E+000	2.9988587E+000	1.8576368E+001	1.5484016E+000
8.000000000000000E+000	2.0000150E+000	1.8871855E+001	1.6654212E+000
8.000000000000000E+000	9.9884343E-001	1.9429653E+001	2.0546365E+000
8.000000000000000E+000	9.9884343E-001	1.9433573E+001	2.0760946E+000
8.000000000000000E+000	0.0000000E+000	0.0000000E+000	0.0000000E+000
9.000000000000000E+000	9.9979990E+003	7.2518268E+000	1.9682041E+000
9.000000000000000E+000	6.8129990E+003	7.7669735E+000	1.9510057E+000
9.000000000000000E+000	4.6420000E+003	8.3106928E+000	2.0284684E+000
9.000000000000000E+000	3.1620007E+003	8.8283443E+000	2.0557344E+000
9.000000000000000E+000	2.1540000E+003	9.3356199E+000	2.0878191E+000
9.000000000000000E+000	1.4679995E+003	9.8235989E+000	2.1322560E+000
9.000000000000000E+000	9.9800061E+002	1.0327871E+001	2.2245061E+000
9.000000000000000E+000	6.8099933E+002	1.0848035E+001	2.3363566E+000
9.000000000000000E+000	4.6399887E+002	1.1440042E+001	2.4615135E+000
9.000000000000000E+000	3.1600006E+002	1.2079920E+001	2.5805759E+000
9.000000000000000E+000	2.1500046E+002	1.2777409E+001	2.6785846E+000
9.000000000000000E+000	1.4699995E+002	1.3486607E+001	2.7223699E+000
9.000000000000000E+000	1.0200077E+002	1.4185010E+001	2.7135420E+000
9.000000000000000E+000	6.8000511E+001	1.4952940E+001	2.6438036E+000
9.000000000000000E+000	4.6000347E+001	1.5656437E+001	2.5364902E+000
9.000000000000000E+000	3.2000240E+001	1.6277105E+001	2.3689775E+000
9.000000000000000E+000	2.2000166E+001	1.6841196E+001	2.1700242E+000
9.000000000000000E+000	1.4998950E+001	1.7333273E+001	1.9434170E+000
9.000000000000000E+000	1.0000075E+001	1.7752144E+001	1.7367630E+000
9.000000000000000E+000	6.9988890E+000	1.8067820E+001	1.6155400E+000
9.000000000000000E+000	4.9988737E+000	1.8323635E+001	1.5268598E+000
9.000000000000000E+000	2.9988587E+000	1.8675428E+001	1.5543327E+000
9.000000000000000E+000	2.0000150E+000	1.8962807E+001	1.6486983E+000
9.000000000000000E+000	9.9884343E-001	1.9500673E+001	2.0981865E+000
9.000000000000000E+000	9.9884343E-001	1.9512634E+001	2.0567005E+000
9.000000000000000E+000	0.0000000E+000	0.0000000E+000	0.0000000E+000
1.000000000000000E+001	9.9979990E+003	7.3334727E+000	1.8140274E+000
1.000000000000000E+001	6.8129990E+003	7.7350740E+000	1.9495792E+000
1.000000000000000E+001	4.6420000E+003	8.2746992E+000	2.0196517E+000
1.000000000000000E+001	3.1620007E+003	8.7994413E+000	2.0576277E+000
1.000000000000000E+001	2.1540000E+003	9.3032217E+000	2.0854287E+000
1.000000000000000E+001	1.4679995E+003	9.7953701E+000	2.1333525E+000
1.000000000000000E+001	9.9800061E+002	1.0301029E+001	2.2043772E+000
1.000000000000000E+001	6.8099933E+002	1.0821133E+001	2.3205996E+000
1.000000000000000E+001	4.6399887E+002	1.1397641E+001	2.4555140E+000
1.000000000000000E+001	3.1600006E+002	1.2038193E+001	2.5787582E+000
1.000000000000000E+001	2.1500046E+002	1.2726377E+001	2.6752594E+000
1.000000000000000E+001	1.4699995E+002	1.3445739E+001	2.7119095E+000
1.000000000000000E+001	1.0200077E+002	1.4136121E+001	2.7097304E+000
1.000000000000000E+001	6.8000511E+001	1.4902857E+001	2.6552627E+000
1.000000000000000E+001	4.6000347E+001	1.5607590E+001	2.5368490E+000
1.000000000000000E+001	3.2000240E+001	1.6229721E+001	2.3757081E+000
1.000000000000000E+001	2.2000166E+001	1.6805412E+001	2.1737771E+000
1.000000000000000E+001	1.4998950E+001	1.7294031E+001	1.9552708E+000
1.000000000000000E+001	1.0000075E+001	1.7711895E+001	1.7507155E+000
1.000000000000000E+001	6.9988890E+000	1.8034983E+001	1.6163495E+000
1.000000000000000E+001	4.9988737E+000	1.8289007E+001	1.5458503E+000
1.000000000000000E+001	2.9988587E+000	1.8624573E+001	1.5516515E+000
1.000000000000000E+001	2.0000150E+000	1.8924215E+001	1.6469842E+000
1.000000000000000E+001	9.9884343E-001	1.9464661E+001	2.1003377E+000
1.000000000000000E+001	9.9884343E-001	1.9466507E+001	2.0531640E+000
1.000000000000000E+001	0.0000000E+000	0.0000000E+000	0.0000000E+000
1.100000000000000E+001	9.9979990E+003	7.1875777E+000	1.9476675E+000
1.100000000000000E+001	6.8129990E+003	7.7131939E+000	1.9484420E+000
1.100000000000000E+001	4.6420000E+003	8.2565784E+000	2.0208194E+000
1.100000000000000E+001	3.1620007E+003	8.7803965E+000	2.0626986E+000
1.100000000000000E+001	2.1540000E+003	9.2845402E+000	2.0921938E+000
1.100000000000000E+001	1.4679995E+003	9.7796192E+000	2.1339216E+000
1.100000000000000E+001	9.9800061E+002	1.0281256E+001	2.2181683E+000
1.100000000000000E+001	6.8099933E+002	1.0796347E+001	2.3206973E+000
1.100000000000000E+001	4.6399887E+002	1.1383985E+001	2.4521384E+000
1.100000000000000E+001	3.1600006E+002	1.2020153E+001	2.5792539E+000
1.100000000000000E+001	2.1500046E+002	1.2713190E+001	2.6715229E+000
1.100000000000000E+001	1.4699995E+002	1.3424118E+001	2.7156534E+000
1.100000000000000E+001	1.0200077E+002	1.4115093E+001	2.7182829E+000
1.100000000000000E+001	6.8000511E+001	1.4877148E+001	2.6551201E+000
1.100000000000000E+001	4.6000347E+001	1.5590299E+001	2.5461268E+000
1.100000000000000E+001	3.2000240E+001	1.6209951E+001	2.3825853E+000
1.100000000000000E+001	2.2000166E+001	1.6783661E+001	2.1708057E+000
1.100000000000000E+001	1.4998950E+001	1.7283094E+001	1.9574895E+000
1.100000000000000E+001	1.0000075E+001	1.7715643E+001	1.7487586E+000
1.100000000000000E+001	6.9988890E+000	1.8030317E+001	1.6233132E+000
1.100000000000000E+001	4.9988737E+000	1.8281717E+001	1.5458817E+000
1.100000000000000E+001	2.9988587E+000	1.8643059E+001	1.5564836E+000
1.100000000000000E+001	2.0000150E+000	1.8933092E+001	1.6439933E+000
1.100000000000000E+001	9.9884343E-001	1.9462034E+001	2.0790567E+000
1.100000000000000E+001	9.9884343E-001	1.9473291E+001	2.0440040E+000
1.100000000000000E+001	0.0000000E+000	0.0000000E+000	0.0000000E+000