cycle number	freq/Hz	Re(Z)/Ohm	-Im(Z)/Ohm	
2.000000000000000E+000	1.0001000E+004	8.4340019E+000	2.2002959E+000
2.000000000000000E+000	6.7460000E+003	8.9113970E+000	1.9182779E+000
2.000000000000000E+000	4.5510005E+003	9.3817205E+000	1.8673815E+000
2.000000000000000E+000	3.0700000E+003	9.8183575E+000	1.8344228E+000
2.000000000000000E+000	2.0710005E+003	1.0250462E+001	1.8349762E+000
2.000000000000000E+000	1.3970001E+003	1.0680414E+001	1.8683239E+000
2.000000000000000E+000	9.4205835E+002	1.1150760E+001	1.8977917E+000
2.000000000000000E+000	6.3536450E+002	1.1640770E+001	1.9277440E+000
2.000000000000000E+000	4.2871338E+002	1.2137363E+001	1.9412048E+000
2.000000000000000E+000	2.8913373E+002	1.2641953E+001	1.9311496E+000
2.000000000000000E+000	1.9502592E+002	1.3125427E+001	1.9288641E+000
2.000000000000000E+000	1.3346550E+002	1.3601472E+001	1.9273689E+000
2.000000000000000E+000	8.8668892E+001	1.4119561E+001	1.9173831E+000
2.000000000000000E+000	5.9863087E+001	1.4624677E+001	1.8834974E+000
2.000000000000000E+000	4.0354206E+001	1.5125800E+001	1.8105934E+000
2.000000000000000E+000	2.7236528E+001	1.5586527E+001	1.7068999E+000
2.000000000000000E+000	1.8356367E+001	1.5992019E+001	1.5890243E+000
2.000000000000000E+000	1.2393575E+001	1.6337261E+001	1.4837435E+000
2.000000000000000E+000	8.3562918E+000	1.6647270E+001	1.4281031E+000
2.000000000000000E+000	5.6368299E+000	1.6922577E+001	1.4249755E+000
2.000000000000000E+000	3.8021243E+000	1.7188803E+001	1.4867285E+000
2.000000000000000E+000	2.5634654E+000	1.7470610E+001	1.6229910E+000
2.000000000000000E+000	1.7299316E+000	1.7766916E+001	1.8473518E+000
2.000000000000000E+000	1.1664815E+000	1.8127932E+001	2.1883838E+000
2.000000000000000E+000	7.8696758E-001	1.8575634E+001	2.6507676E+000
2.000000000000000E+000	5.3085387E-001	1.9043587E+001	3.2189593E+000
2.000000000000000E+000	3.5855919E-001	1.9714937E+001	4.0530710E+000
2.000000000000000E+000	2.4214387E-001	2.0512320E+001	4.9432864E+000
2.000000000000000E+000	1.6298145E-001	2.1669041E+001	6.2207489E+000
2.000000000000000E+000	1.0943040E-001	2.2964737E+001	7.8166847E+000
2.000000000000000E+000	7.4505806E-002	2.4503298E+001	9.3619833E+000
2.000000000000000E+000	4.8894435E-002	2.6446756E+001	1.1338170E+001
3.000000000000000E+000	1.0001000E+004	8.2512407E+000	2.1055870E+000
3.000000000000000E+000	6.7460000E+003	8.8758926E+000	1.8198780E+000
3.000000000000000E+000	4.5510005E+003	9.3055506E+000	1.7320722E+000
3.000000000000000E+000	3.0700000E+003	9.6930199E+000	1.6769162E+000
3.000000000000000E+000	2.0710005E+003	1.0064634E+001	1.6646875E+000
3.000000000000000E+000	1.3970001E+003	1.0446989E+001	1.6861974E+000
3.000000000000000E+000	9.4205835E+002	1.0852670E+001	1.7416773E+000
3.000000000000000E+000	6.3536450E+002	1.1301627E+001	1.7938281E+000
3.000000000000000E+000	4.2871338E+002	1.1773071E+001	1.8328594E+000
3.000000000000000E+000	2.8913373E+002	1.2251012E+001	1.8574513E+000
3.000000000000000E+000	1.9502592E+002	1.2736003E+001	1.8598365E+000
3.000000000000000E+000	1.3346550E+002	1.3196651E+001	1.8634449E+000
3.000000000000000E+000	8.8668892E+001	1.3701199E+001	1.8565671E+000
3.000000000000000E+000	5.9863087E+001	1.4190465E+001	1.8290930E+000
3.000000000000000E+000	4.0354206E+001	1.4682307E+001	1.7677644E+000
3.000000000000000E+000	2.7236528E+001	1.5138665E+001	1.6614487E+000
3.000000000000000E+000	1.8356367E+001	1.5523493E+001	1.5423604E+000
3.000000000000000E+000	1.2393575E+001	1.5865471E+001	1.4467535E+000
3.000000000000000E+000	8.3562918E+000	1.6163630E+001	1.3916069E+000
3.000000000000000E+000	5.6368299E+000	1.6424852E+001	1.3881218E+000
3.000000000000000E+000	3.8021243E+000	1.6683952E+001	1.4494069E+000
3.000000000000000E+000	2.5634654E+000	1.6959543E+001	1.5905868E+000
3.000000000000000E+000	1.7299316E+000	1.7249931E+001	1.8168176E+000
3.000000000000000E+000	1.1664815E+000	1.7599377E+001	2.1554062E+000
3.000000000000000E+000	7.8696758E-001	1.8028946E+001	2.6261609E+000
3.000000000000000E+000	5.3085387E-001	1.8516758E+001	3.1687224E+000
3.000000000000000E+000	3.5855919E-001	1.9152618E+001	3.9932432E+000
3.000000000000000E+000	2.4214387E-001	2.0003807E+001	4.8623910E+000
3.000000000000000E+000	1.6298145E-001	2.1127604E+001	6.1244297E+000
3.000000000000000E+000	1.0943040E-001	2.2377430E+001	7.6099558E+000
3.000000000000000E+000	7.4505806E-002	2.3948143E+001	9.0381203E+000
3.000000000000000E+000	4.8894435E-002	2.5926348E+001	1.0903893E+001
4.000000000000000E+000	1.0001000E+004	8.0391130E+000	1.8472431E+000
4.000000000000000E+000	6.7460000E+003	8.7590895E+000	1.7981626E+000
4.000000000000000E+000	4.5510005E+003	9.1826382E+000	1.7218202E+000
4.000000000000000E+000	3.0700000E+003	9.5706015E+000	1.6708050E+000
4.000000000000000E+000	2.0710005E+003	9.9417448E+000	1.6649083E+000
4.000000000000000E+000	1.3970001E+003	1.0317363E+001	1.6921246E+000
4.000000000000000E+000	9.4205835E+002	1.0737340E+001	1.7459630E+000
4.000000000000000E+000	6.3536450E+002	1.1186490E+001	1.8089217E+000
4.000000000000000E+000	4.2871338E+002	1.1661633E+001	1.8541499E+000
4.000000000000000E+000	2.8913373E+002	1.2150869E+001	1.8785590E+000
4.000000000000000E+000	1.9502592E+002	1.2639087E+001	1.8811792E+000
4.000000000000000E+000	1.3346550E+002	1.3103720E+001	1.8801614E+000
4.000000000000000E+000	8.8668892E+001	1.3612657E+001	1.8661348E+000
4.000000000000000E+000	5.9863087E+001	1.4113148E+001	1.8343216E+000
4.000000000000000E+000	4.0354206E+001	1.4595077E+001	1.7623837E+000
4.000000000000000E+000	2.7236528E+001	1.5042690E+001	1.6598839E+000
4.000000000000000E+000	1.8356367E+001	1.5438759E+001	1.5408357E+000
4.000000000000000E+000	1.2393575E+001	1.5778338E+001	1.4441320E+000
4.000000000000000E+000	8.3562918E+000	1.6074106E+001	1.3840857E+000
4.000000000000000E+000	5.6368299E+000	1.6336821E+001	1.3810488E+000
4.000000000000000E+000	3.8021243E+000	1.6600998E+001	1.4443245E+000
4.000000000000000E+000	2.5634654E+000	1.6858112E+001	1.5802497E+000
4.000000000000000E+000	1.7299316E+000	1.7154776E+001	1.8107892E+000
4.000000000000000E+000	1.1664815E+000	1.7480913E+001	2.1131642E+000
4.000000000000000E+000	7.8696758E-001	1.7875986E+001	2.5553224E+000
4.000000000000000E+000	5.3085387E-001	1.8406378E+001	3.1700611E+000
4.000000000000000E+000	3.5855919E-001	1.9047937E+001	3.8596010E+000
4.000000000000000E+000	2.4214387E-001	1.9897346E+001	4.8817239E+000
4.000000000000000E+000	1.6298145E-001	2.0863926E+001	5.9960704E+000
4.000000000000000E+000	1.0943040E-001	2.2256491E+001	7.2929578E+000
4.000000000000000E+000	7.4505806E-002	2.3896547E+001	9.0266037E+000
4.000000000000000E+000	4.8894435E-002	2.5993849E+001	1.1225031E+001
5.000000000000000E+000	1.0001000E+004	8.3267546E+000	1.6768427E+000
5.000000000000000E+000	6.7460000E+003	8.6416492E+000	1.7796992E+000
5.000000000000000E+000	4.5510005E+003	9.0678988E+000	1.7013220E+000
5.000000000000000E+000	3.0700000E+003	9.4527359E+000	1.6543397E+000
5.000000000000000E+000	2.0710005E+003	9.8212824E+000	1.6481858E+000
5.000000000000000E+000	1.3970001E+003	1.0195130E+001	1.6870811E+000
5.000000000000000E+000	9.4205835E+002	1.0610747E+001	1.7446519E+000
5.000000000000000E+000	6.3536450E+002	1.1061269E+001	1.8061922E+000
5.000000000000000E+000	4.2871338E+002	1.1542600E+001	1.8531972E+000
5.000000000000000E+000	2.8913373E+002	1.2024705E+001	1.8713020E+000
5.000000000000000E+000	1.9502592E+002	1.2513752E+001	1.8753283E+000
5.000000000000000E+000	1.3346550E+002	1.2982171E+001	1.8813241E+000
5.000000000000000E+000	8.8668892E+001	1.3487358E+001	1.8656456E+000
5.000000000000000E+000	5.9863087E+001	1.3984303E+001	1.8358572E+000
5.000000000000000E+000	4.0354206E+001	1.4471375E+001	1.7634374E+000
5.000000000000000E+000	2.7236528E+001	1.4924696E+001	1.6658891E+000
5.000000000000000E+000	1.8356367E+001	1.5322495E+001	1.5422149E+000
5.000000000000000E+000	1.2393575E+001	1.5658733E+001	1.4443877E+000
5.000000000000000E+000	8.3562918E+000	1.5956392E+001	1.3844696E+000
5.000000000000000E+000	5.6368299E+000	1.6218451E+001	1.3786943E+000
5.000000000000000E+000	3.8021243E+000	1.6483294E+001	1.4346174E+000
5.000000000000000E+000	2.5634654E+000	1.6746122E+001	1.5692083E+000
5.000000000000000E+000	1.7299316E+000	1.7030769E+001	1.7732842E+000
5.000000000000000E+000	1.1664815E+000	1.7379843E+001	2.0940397E+000
5.000000000000000E+000	7.8696758E-001	1.7752581E+001	2.5531676E+000
5.000000000000000E+000	5.3085387E-001	1.8255497E+001	3.1191792E+000
5.000000000000000E+000	3.5855919E-001	1.8943350E+001	3.8214080E+000
5.000000000000000E+000	2.4214387E-001	1.9666561E+001	4.7510633E+000
5.000000000000000E+000	1.6298145E-001	2.0792645E+001	5.8391852E+000
5.000000000000000E+000	1.0943040E-001	2.2097208E+001	7.3318624E+000
5.000000000000000E+000	7.4505806E-002	2.3518183E+001	8.7673168E+000
5.000000000000000E+000	4.8894435E-002	2.5308653E+001	1.0575442E+001
6.000000000000000E+000	1.0001000E+004	8.2164402E+000	1.6295499E+000
6.000000000000000E+000	6.7460000E+003	8.6280794E+000	1.7753328E+000
6.000000000000000E+000	4.5510005E+003	9.0421400E+000	1.6979541E+000
6.000000000000000E+000	3.0700000E+003	9.4273491E+000	1.6558021E+000
6.000000000000000E+000	2.0710005E+003	9.7959061E+000	1.6542710E+000
6.000000000000000E+000	1.3970001E+003	1.0181834E+001	1.6943671E+000
6.000000000000000E+000	9.4205835E+002	1.0593945E+001	1.7564245E+000
6.000000000000000E+000	6.3536450E+002	1.1049300E+001	1.8172717E+000
6.000000000000000E+000	4.2871338E+002	1.1531050E+001	1.8652806E+000
6.000000000000000E+000	2.8913373E+002	1.2021523E+001	1.8860334E+000
6.000000000000000E+000	1.9502592E+002	1.2512542E+001	1.8935808E+000
6.000000000000000E+000	1.3346550E+002	1.2980687E+001	1.8854942E+000
6.000000000000000E+000	8.8668892E+001	1.3490626E+001	1.8761317E+000
6.000000000000000E+000	5.9863087E+001	1.3987500E+001	1.8497826E+000
6.000000000000000E+000	4.0354206E+001	1.4482527E+001	1.7831848E+000
6.000000000000000E+000	2.7236528E+001	1.4946122E+001	1.6774198E+000
6.000000000000000E+000	1.8356367E+001	1.5339115E+001	1.5619521E+000
6.000000000000000E+000	1.2393575E+001	1.5689272E+001	1.4619060E+000
6.000000000000000E+000	8.3562918E+000	1.5981828E+001	1.3936899E+000
6.000000000000000E+000	5.6368299E+000	1.6250284E+001	1.3846493E+000
6.000000000000000E+000	3.8021243E+000	1.6518953E+001	1.4366040E+000
6.000000000000000E+000	2.5634654E+000	1.6781622E+001	1.5581455E+000
6.000000000000000E+000	1.7299316E+000	1.7066225E+001	1.7604567E+000
6.000000000000000E+000	1.1664815E+000	1.7391476E+001	2.0692146E+000
6.000000000000000E+000	7.8696758E-001	1.7840521E+001	2.5165436E+000
6.000000000000000E+000	5.3085387E-001	1.8299290E+001	3.0571496E+000
6.000000000000000E+000	3.5855919E-001	1.8892908E+001	3.7923069E+000
6.000000000000000E+000	2.4214387E-001	1.9772358E+001	4.7135620E+000
6.000000000000000E+000	1.6298145E-001	2.0691929E+001	5.8415632E+000
6.000000000000000E+000	1.0943040E-001	2.2002335E+001	7.0707097E+000
6.000000000000000E+000	7.4505806E-002	2.3588377E+001	8.7289848E+000
6.000000000000000E+000	4.8894435E-002	2.5581697E+001	1.0897896E+001
7.000000000000000E+000	1.0001000E+004	8.1465693E+000	2.0493078E+000
7.000000000000000E+000	6.7460000E+003	8.5735025E+000	1.7598538E+000
7.000000000000000E+000	4.5510005E+003	8.9866028E+000	1.6950445E+000
7.000000000000000E+000	3.0700000E+003	9.3716011E+000	1.6539620E+000
7.000000000000000E+000	2.0710005E+003	9.7437057E+000	1.6535442E+000
7.000000000000000E+000	1.3970001E+003	1.0133701E+001	1.6890011E+000
7.000000000000000E+000	9.4205835E+002	1.0543762E+001	1.7570499E+000
7.000000000000000E+000	6.3536450E+002	1.0997430E+001	1.8202016E+000
7.000000000000000E+000	4.2871338E+002	1.1474769E+001	1.8623283E+000
7.000000000000000E+000	2.8913373E+002	1.1966427E+001	1.8821257E+000
7.000000000000000E+000	1.9502592E+002	1.2450065E+001	1.8884712E+000
7.000000000000000E+000	1.3346550E+002	1.2926438E+001	1.8855773E+000
7.000000000000000E+000	8.8668892E+001	1.3431842E+001	1.8787986E+000
7.000000000000000E+000	5.9863087E+001	1.3929871E+001	1.8478938E+000
7.000000000000000E+000	4.0354206E+001	1.4423022E+001	1.7825085E+000
7.000000000000000E+000	2.7236528E+001	1.4883023E+001	1.6824670E+000
7.000000000000000E+000	1.8356367E+001	1.5283464E+001	1.5703677E+000
7.000000000000000E+000	1.2393575E+001	1.5630290E+001	1.4539610E+000
7.000000000000000E+000	8.3562918E+000	1.5922309E+001	1.3887352E+000
7.000000000000000E+000	5.6368299E+000	1.6201374E+001	1.3765119E+000
7.000000000000000E+000	3.8021243E+000	1.6461180E+001	1.4346954E+000
7.000000000000000E+000	2.5634654E+000	1.6722122E+001	1.5539497E+000
7.000000000000000E+000	1.7299316E+000	1.7005571E+001	1.7527375E+000
7.000000000000000E+000	1.1664815E+000	1.7329039E+001	2.0503206E+000
7.000000000000000E+000	7.8696758E-001	1.7761457E+001	2.4997430E+000
7.000000000000000E+000	5.3085387E-001	1.8232841E+001	3.0322614E+000
7.000000000000000E+000	3.5855919E-001	1.8821918E+001	3.7325058E+000
7.000000000000000E+000	2.4214387E-001	1.9650040E+001	4.6792393E+000
7.000000000000000E+000	1.6298145E-001	2.0588949E+001	5.7287645E+000
7.000000000000000E+000	1.0943040E-001	2.1968252E+001	7.0002079E+000
7.000000000000000E+000	7.4505806E-002	2.3402737E+001	8.6725435E+000
7.000000000000000E+000	4.8894435E-002	2.5211636E+001	1.0817939E+001
8.000000000000000E+000	1.0001000E+004	8.0465937E+000	2.0441775E+000
8.000000000000000E+000	6.7460000E+003	8.5837421E+000	1.7605942E+000
8.000000000000000E+000	4.5510005E+003	8.9900265E+000	1.6881717E+000
8.000000000000000E+000	3.0700000E+003	9.3642368E+000	1.6507653E+000
8.000000000000000E+000	2.0710005E+003	9.7367163E+000	1.6492761E+000
8.000000000000000E+000	1.3970001E+003	1.0114944E+001	1.6913104E+000
8.000000000000000E+000	9.4205835E+002	1.0537705E+001	1.7541330E+000
8.000000000000000E+000	6.3536450E+002	1.0985793E+001	1.8158023E+000
8.000000000000000E+000	4.2871338E+002	1.1468468E+001	1.8624486E+000
8.000000000000000E+000	2.8913373E+002	1.1961058E+001	1.8844378E+000
8.000000000000000E+000	1.9502592E+002	1.2452135E+001	1.8899117E+000
8.000000000000000E+000	1.3346550E+002	1.2920386E+001	1.8915483E+000
8.000000000000000E+000	8.8668892E+001	1.3429671E+001	1.8827288E+000
8.000000000000000E+000	5.9863087E+001	1.3931014E+001	1.8499691E+000
8.000000000000000E+000	4.0354206E+001	1.4430531E+001	1.7873077E+000
8.000000000000000E+000	2.7236528E+001	1.4884343E+001	1.6849530E+000
8.000000000000000E+000	1.8356367E+001	1.5298620E+001	1.5597781E+000
8.000000000000000E+000	1.2393575E+001	1.5636802E+001	1.4588362E+000
8.000000000000000E+000	8.3562918E+000	1.5938619E+001	1.3866385E+000
8.000000000000000E+000	5.6368299E+000	1.6213039E+001	1.3714665E+000
8.000000000000000E+000	3.8021243E+000	1.6478237E+001	1.4216980E+000
8.000000000000000E+000	2.5634654E+000	1.6725779E+001	1.5443031E+000
8.000000000000000E+000	1.7299316E+000	1.7020859E+001	1.7380955E+000
8.000000000000000E+000	1.1664815E+000	1.7347301E+001	2.0351553E+000
8.000000000000000E+000	7.8696758E-001	1.7739395E+001	2.4929831E+000
8.000000000000000E+000	5.3085387E-001	1.8233070E+001	3.0083356E+000
8.000000000000000E+000	3.5855919E-001	1.8829767E+001	3.6774662E+000
8.000000000000000E+000	2.4214387E-001	1.9622215E+001	4.6348686E+000
8.000000000000000E+000	1.6298145E-001	2.0574976E+001	5.6322341E+000
8.000000000000000E+000	1.0943040E-001	2.1955906E+001	6.9428978E+000
8.000000000000000E+000	7.4505806E-002	2.3335619E+001	8.5626945E+000
8.000000000000000E+000	4.8894435E-002	2.5042639E+001	1.0688408E+001
9.000000000000000E+000	1.0001000E+004	8.1476402E+000	2.0456145E+000
9.000000000000000E+000	6.7460000E+003	8.5738134E+000	1.7544396E+000
9.000000000000000E+000	4.5510005E+003	8.9846878E+000	1.6889578E+000
9.000000000000000E+000	3.0700000E+003	9.3640671E+000	1.6464069E+000
9.000000000000000E+000	2.0710005E+003	9.7337160E+000	1.6502248E+000
9.000000000000000E+000	1.3970001E+003	1.0106611E+001	1.6837199E+000
9.000000000000000E+000	9.4205835E+002	1.0530829E+001	1.7523839E+000
9.000000000000000E+000	6.3536450E+002	1.0981932E+001	1.8195647E+000
9.000000000000000E+000	4.2871338E+002	1.1463235E+001	1.8672262E+000
9.000000000000000E+000	2.8913373E+002	1.1956253E+001	1.8877023E+000
9.000000000000000E+000	1.9502592E+002	1.2448082E+001	1.8984268E+000
9.000000000000000E+000	1.3346550E+002	1.2918681E+001	1.8944166E+000
9.000000000000000E+000	8.8668892E+001	1.3430471E+001	1.8955321E+000
9.000000000000000E+000	5.9863087E+001	1.3931652E+001	1.8673594E+000
9.000000000000000E+000	4.0354206E+001	1.4429193E+001	1.8019701E+000
9.000000000000000E+000	2.7236528E+001	1.4894901E+001	1.7027469E+000
9.000000000000000E+000	1.8356367E+001	1.5297682E+001	1.5802330E+000
9.000000000000000E+000	1.2393575E+001	1.5660131E+001	1.4703970E+000
9.000000000000000E+000	8.3562918E+000	1.5965446E+001	1.4010791E+000
9.000000000000000E+000	5.6368299E+000	1.6235226E+001	1.3824774E+000
9.000000000000000E+000	3.8021243E+000	1.6490803E+001	1.4196813E+000
9.000000000000000E+000	2.5634654E+000	1.6758711E+001	1.5445753E+000
9.000000000000000E+000	1.7299316E+000	1.7036551E+001	1.7412429E+000
9.000000000000000E+000	1.1664815E+000	1.7356670E+001	2.0382366E+000
9.000000000000000E+000	7.8696758E-001	1.7779215E+001	2.4420445E+000
9.000000000000000E+000	5.3085387E-001	1.8237539E+001	2.9731867E+000
9.000000000000000E+000	3.5855919E-001	1.8832376E+001	3.7107008E+000
9.000000000000000E+000	2.4214387E-001	1.9675734E+001	4.5520339E+000
9.000000000000000E+000	1.6298145E-001	2.0586411E+001	5.6914482E+000
9.000000000000000E+000	1.0943040E-001	2.1814266E+001	6.8695283E+000
9.000000000000000E+000	7.4505806E-002	2.3410152E+001	8.4551954E+000
9.000000000000000E+000	4.8894435E-002	2.5414824E+001	1.0524163E+001
1.000000000000000E+001	1.0001000E+004	8.3083429E+000	1.7519746E+000
1.000000000000000E+001	6.7460000E+003	8.5734539E+000	1.7663289E+000
1.000000000000000E+001	4.5510005E+003	8.9836798E+000	1.6886338E+000
1.000000000000000E+001	3.0700000E+003	9.3618746E+000	1.6476901E+000
1.000000000000000E+001	2.0710005E+003	9.7338028E+000	1.6484129E+000
1.000000000000000E+001	1.3970001E+003	1.0112448E+001	1.6920260E+000
1.000000000000000E+001	9.4205835E+002	1.0526171E+001	1.7577170E+000
1.000000000000000E+001	6.3536450E+002	1.0980518E+001	1.8203812E+000
1.000000000000000E+001	4.2871338E+002	1.1461193E+001	1.8682476E+000
1.000000000000000E+001	2.8913373E+002	1.1959791E+001	1.8927479E+000
1.000000000000000E+001	1.9502592E+002	1.2452074E+001	1.8969951E+000
1.000000000000000E+001	1.3346550E+002	1.2921711E+001	1.9038720E+000
1.000000000000000E+001	8.8668892E+001	1.3435068E+001	1.8958780E+000
1.000000000000000E+001	5.9863087E+001	1.3939185E+001	1.8696826E+000
1.000000000000000E+001	4.0354206E+001	1.4444817E+001	1.8084326E+000
1.000000000000000E+001	2.7236528E+001	1.4900255E+001	1.7014422E+000
1.000000000000000E+001	1.8356367E+001	1.5311805E+001	1.5773401E+000
1.000000000000000E+001	1.2393575E+001	1.5666265E+001	1.4718317E+000
1.000000000000000E+001	8.3562918E+000	1.5978941E+001	1.3973165E+000
1.000000000000000E+001	5.6368299E+000	1.6243372E+001	1.3777844E+000
1.000000000000000E+001	3.8021243E+000	1.6501808E+001	1.4208379E+000
1.000000000000000E+001	2.5634654E+000	1.6771748E+001	1.5362393E+000
1.000000000000000E+001	1.7299316E+000	1.7051991E+001	1.7298086E+000
1.000000000000000E+001	1.1664815E+000	1.7378986E+001	2.0328672E+000
1.000000000000000E+001	7.8696758E-001	1.7749277E+001	2.4416409E+000
1.000000000000000E+001	5.3085387E-001	1.8234316E+001	2.9834521E+000
1.000000000000000E+001	3.5855919E-001	1.8905571E+001	3.6563699E+000
1.000000000000000E+001	2.4214387E-001	1.9587214E+001	4.5170059E+000
1.000000000000000E+001	1.6298145E-001	2.0659365E+001	5.5609913E+000
1.000000000000000E+001	1.0943040E-001	2.1902723E+001	6.9728770E+000
1.000000000000000E+001	7.4505806E-002	2.3221951E+001	8.3355923E+000
1.000000000000000E+001	4.8894435E-002	2.4896467E+001	1.0075574E+001
1.100000000000000E+001	1.0001000E+004	8.3082638E+000	1.8343296E+000
