cycle number,freq/Hz,Re(Z)/Ohm,-Im(Z)/Ohm
5.0,10001.0,7.3721366,2.3290539
5.0,6723.9995,8.2467022,2.4277844
5.0,4521.0005,8.9275808,2.5374985
5.0,3039.9998,9.6243925,2.610707
5.0,2043.9991,10.346654,2.6527193
5.0,1373.6262,11.082661,2.6479383
5.0,924.07684,11.812931,2.5819454
5.0,620.75903,12.491385,2.4572842
5.0,417.33029,13.10011,2.3105509
5.0,280.59583,13.645686,2.1813333
5.0,188.67896,14.150245,2.0897048
5.0,126.85777,14.64143,2.0352023
5.0,85.318459,15.149328,2.0033412
5.0,57.369469,15.671142,1.9655048
5.0,38.573051,16.188835,1.9044448
5.0,25.937332,16.673647,1.7941188
5.0,17.425045,17.117765,1.6684483
5.0,11.723022,17.490324,1.5577619
5.0,7.8813171,17.81591,1.475105
5.0,5.2992253,18.107916,1.4609519
5.0,3.5623088,18.394272,1.512727
5.0,2.3934989,18.679327,1.6343479
5.0,1.6111881,18.992323,1.8555937
5.0,1.0826625,19.341999,2.1695714
5.0,0.72875988,19.748827,2.6039565
5.0,0.48894435,20.293821,3.2511318
5.0,0.32829121,20.891912,3.9730172
5.0,0.22118911,21.830194,5.0234761
5.0,0.14901161,22.784687,6.3426275
5.0,0.10011718,24.154633,7.7730918
6.0,10001.0,7.2499089,2.1940925
6.0,6723.9995,8.1167421,2.3410175
6.0,4521.0005,8.7731829,2.437134
6.0,3039.9998,9.4400444,2.4977317
6.0,2043.9991,10.119792,2.5361333
6.0,1373.6262,10.821175,2.5342481
6.0,924.07684,11.514052,2.4742873
6.0,620.75903,12.171855,2.3685822
6.0,417.33029,12.75045,2.2338309
6.0,280.59583,13.284377,2.1228502
6.0,188.67896,13.774304,2.0414226
6.0,126.85777,14.250045,2.0017915
6.0,85.318459,14.751394,1.9739292
6.0,57.369469,15.2681,1.9543617
6.0,38.573051,15.784828,1.8920879
6.0,25.937332,16.277655,1.7943523
6.0,17.425045,16.718161,1.6676975
6.0,11.723022,17.101967,1.5647471
6.0,7.8813171,17.427689,1.4942499
6.0,5.2992253,17.726114,1.4730361
6.0,3.5623088,18.009956,1.5129228
6.0,2.3934989,18.302555,1.6515756
6.0,1.6111881,18.602869,1.8499305
6.0,1.0826625,18.967695,2.1407592
6.0,0.72875988,19.381287,2.5739489
6.0,0.48894435,19.900324,3.2323101
6.0,0.32829121,20.524595,3.8952208
6.0,0.22118911,21.409243,4.9366336
6.0,0.14901161,22.365292,6.1689544
6.0,0.10011718,23.744753,7.5557508
7.0,10001.0,7.2526236,2.2993569
7.0,6723.9995,8.0448837,2.2888272
7.0,4521.0005,8.690814,2.3761132
7.0,3039.9998,9.3298569,2.431921
7.0,2043.9991,9.9907522,2.4719169
7.0,1373.6262,10.667671,2.47014
7.0,924.07684,11.338053,2.4176316
7.0,620.75903,11.97473,2.3158374
7.0,417.33029,12.551305,2.2000418
7.0,280.59583,13.071844,2.0926948
7.0,188.67896,13.554787,2.0242167
7.0,126.85777,14.03186,1.9871477
7.0,85.318459,14.526171,1.9704417
7.0,57.369469,15.044194,1.9631877
7.0,38.573051,15.568018,1.9064829
7.0,25.937332,16.072348,1.8178523
7.0,17.425045,16.519224,1.7001102
7.0,11.723022,16.910278,1.5923291
7.0,7.8813171,17.243504,1.5100292
7.0,5.2992253,17.554701,1.4808985
7.0,3.5623088,17.84655,1.5292979
7.0,2.3934989,18.135229,1.651794
7.0,1.6111881,18.44611,1.8448259
7.0,1.0826625,18.806532,2.1377144
7.0,0.72875988,19.221872,2.5400465
7.0,0.48894435,19.708923,3.1635389
7.0,0.32829121,20.379854,3.8303177
7.0,0.22118911,21.213108,4.874198
7.0,0.14901161,22.138332,5.9901962
7.0,0.10011718,23.541267,7.3779597
8.0,10001.0,7.3744168,1.9015242
8.0,6723.9995,7.9915171,2.2594521
8.0,4521.0005,8.6185093,2.3413644
8.0,3039.9998,9.253068,2.3884356
8.0,2043.9991,9.8974667,2.4225287
8.0,1373.6262,10.557664,2.4183168
8.0,924.07684,11.213327,2.3738236
8.0,620.75903,11.836375,2.2841611
8.0,417.33029,12.406235,2.174577
8.0,280.59583,12.916739,2.0793431
8.0,188.67896,13.408493,2.0145297
8.0,126.85777,13.884857,1.9871442
8.0,85.318459,14.374966,1.9791229
8.0,57.369469,14.893232,1.9676841
8.0,38.573051,15.425332,1.9218187
8.0,25.937332,15.930978,1.8317393
8.0,17.425045,16.387592,1.7159925
8.0,11.723022,16.782667,1.6024892
8.0,7.8813171,17.130175,1.5294946
8.0,5.2992253,17.435873,1.494446
8.0,3.5623088,17.730614,1.5316733
8.0,2.3934989,18.019087,1.6396694
8.0,1.6111881,18.342791,1.8285269
8.0,1.0826625,18.689976,2.1366441
8.0,0.72875988,19.12743,2.549515
8.0,0.48894435,19.594746,3.0503881
8.0,0.32829121,20.281588,3.8448188
8.0,0.22118911,20.975231,4.7451468
8.0,0.14901161,22.06246,5.8144336
8.0,0.10011718,23.400257,7.3617482
9.0,10001.0,7.5720067,2.0280769
9.0,6723.9995,7.985846,2.2522345
9.0,4521.0005,8.6175489,2.3262765
9.0,3039.9998,9.2434378,2.3695202
9.0,2043.9991,9.881732,2.4020529
9.0,1373.6262,10.536317,2.408725
9.0,924.07684,11.187339,2.3623171
9.0,620.75903,11.810496,2.2794261
9.0,417.33029,12.367915,2.1729383
9.0,280.59583,12.887271,2.0808966
9.0,188.67896,13.373863,2.0217063
9.0,126.85777,13.855688,1.9966706
9.0,85.318459,14.352081,1.9965522
9.0,57.369469,14.878893,1.9842579
9.0,38.573051,15.408465,1.9466126
9.0,25.937332,15.929264,1.8657992
9.0,17.425045,16.394989,1.7433631
9.0,11.723022,16.798504,1.6365238
9.0,7.8813171,17.147173,1.5486196
9.0,5.2992253,17.465784,1.5158045
9.0,3.5623088,17.760475,1.5358931
9.0,2.3934989,18.053926,1.6441684
9.0,1.6111881,18.378225,1.8308198
9.0,1.0826625,18.72699,2.1304457
9.0,0.72875988,19.156061,2.5546451
9.0,0.48894435,19.662315,3.0328496
9.0,0.32829121,20.270527,3.8336463
9.0,0.22118911,21.023447,4.6449451
9.0,0.14901161,22.124659,5.8083906
9.0,0.10011718,23.322479,7.3059006
10.0,10001.0,7.1421151,2.1669459
10.0,6723.9995,7.9744649,2.2410741
10.0,4521.0005,8.594367,2.316169
10.0,3039.9998,9.2210732,2.3637042
10.0,2043.9991,9.8504591,2.3896978
10.0,1373.6262,10.501781,2.3930383
10.0,924.07684,11.151924,2.3510373
10.0,620.75903,11.763277,2.2670929
10.0,417.33029,12.322486,2.1678443
10.0,280.59583,12.844214,2.0825982
10.0,188.67896,13.332194,2.0265055
10.0,126.85777,13.81384,2.0053642
10.0,85.318459,14.308811,2.0051513
10.0,57.369469,14.838448,2.0047872
10.0,38.573051,15.378913,1.9619157
10.0,25.937332,15.905591,1.8813031
10.0,17.425045,16.374941,1.7650038
10.0,11.723022,16.785286,1.6457542
10.0,7.8813171,17.144611,1.5681084
10.0,5.2992253,17.463161,1.5218427
10.0,3.5623088,17.756878,1.5522617
10.0,2.3934989,18.059053,1.6519003
10.0,1.6111881,18.37715,1.8390368
10.0,1.0826625,18.720043,2.1105845
10.0,0.72875988,19.129238,2.5197566
10.0,0.48894435,19.691916,3.05761
10.0,0.32829121,20.234266,3.8012445
10.0,0.22118911,21.065001,4.6076894
10.0,0.14901161,22.089287,5.8232198
10.0,0.10011718,23.245176,7.1989698
11.0,10001.0,7.4174318,1.9370924
11.0,6723.9995,8.0449657,2.2769518
11.0,4521.0005,8.6815872,2.349272
11.0,3039.9998,9.3083134,2.3930755
11.0,2043.9991,9.9455357,2.4220507
11.0,1373.6262,10.604841,2.4288514
11.0,924.07684,11.25957,2.3880832
11.0,620.75903,11.889516,2.3011668
11.0,417.33029,12.454493,2.2003243
11.0,280.59583,12.986448,2.1117101
11.0,188.67896,13.476724,2.0462525
11.0,126.85777,13.960722,2.0277967
11.0,85.318459,14.467258,2.033112
11.0,57.369469,14.995226,2.0311062
11.0,38.573051,15.546021,1.9979477
11.0,25.937332,16.07785,1.9184625
11.0,17.425045,16.565323,1.8031787
11.0,11.723022,16.985283,1.6779737
11.0,7.8813171,17.351149,1.5947298
11.0,5.2992253,17.67688,1.5477083
11.0,3.5623088,17.982534,1.5717027
11.0,2.3934989,18.278992,1.6695373
11.0,1.6111881,18.601406,1.8436266
11.0,1.0826625,18.964407,2.1374834
11.0,0.72875988,19.402544,2.524966
11.0,0.48894435,19.846233,3.056324
11.0,0.32829121,20.564642,3.7756362
11.0,0.22118911,21.257299,4.7381496
11.0,0.14901161,22.277483,5.7416492
11.0,0.10011718,23.643129,7.2002635
12.0,10001.0,7.3825259,1.9118252
12.0,6723.9995,7.9781713,2.2431383
12.0,4521.0005,8.6017818,2.3112693
12.0,3039.9998,9.2229328,2.3513062
12.0,2043.9991,9.8463764,2.3784256
12.0,1373.6262,10.489233,2.3807421
12.0,924.07684,11.137003,2.3467286
12.0,620.75903,11.748147,2.2716451
12.0,417.33029,12.315457,2.1747518
12.0,280.59583,12.838151,2.090266
12.0,188.67896,13.32438,2.0303278
12.0,126.85777,13.812732,2.0169601
12.0,85.318459,14.311423,2.0190551
12.0,57.369469,14.835855,2.0237453
12.0,38.573051,15.392653,1.9966178
12.0,25.937332,15.929818,1.9215825
12.0,17.425045,16.409124,1.8041389
12.0,11.723022,16.839174,1.6814852
12.0,7.8813171,17.198606,1.5896562
12.0,5.2992253,17.526789,1.5449772
12.0,3.5623088,17.833797,1.5694996
12.0,2.3934989,18.129103,1.665899
12.0,1.6111881,18.45159,1.8352736
12.0,1.0826625,18.808704,2.1310487
12.0,0.72875988,19.247913,2.5227032
12.0,0.48894435,19.694092,3.0381999
12.0,0.32829121,20.403877,3.7680013
12.0,0.22118911,21.094761,4.6882577
12.0,0.14901161,22.134605,5.7051458
12.0,0.10011718,23.466438,7.1558499
13.0,10001.0,7.5054097,2.2765169
13.0,6723.9995,7.976079,2.2424963
13.0,4521.0005,8.5980349,2.3059521
13.0,3039.9998,9.2138901,2.3509049
13.0,2043.9991,9.8385448,2.3751798
13.0,1373.6262,10.48132,2.3844616
13.0,924.07684,11.125196,2.3458171
13.0,620.75903,11.744608,2.272176
13.0,417.33029,12.303988,2.1739223
13.0,280.59583,12.829673,2.0930953
13.0,188.67896,13.318473,2.0367353
13.0,126.85777,13.803994,2.0134456
13.0,85.318459,14.304734,2.025238
13.0,57.369469,14.832917,2.0281057
13.0,38.573051,15.38693,1.9994386
13.0,25.937332,15.928594,1.925832
13.0,17.425045,16.418943,1.8096592
13.0,11.723022,16.843687,1.689839
13.0,7.8813171,17.205875,1.5929275
13.0,5.2992253,17.534649,1.5492513
13.0,3.5623088,17.839306,1.5719575
13.0,2.3934989,18.135719,1.6647943
13.0,1.6111881,18.458281,1.8398857
13.0,1.0826625,18.820835,2.1319578
13.0,0.72875988,19.252623,2.5315285
13.0,0.48894435,19.716106,3.0283332
13.0,0.32829121,20.413185,3.7925062
13.0,0.22118911,21.102543,4.6625876
13.0,0.14901161,22.18243,5.7069635
13.0,0.10011718,23.47188,7.1870589
14.0,10001.0,7.3307915,1.9097522
14.0,6723.9995,7.9704642,2.24266
14.0,4521.0005,8.5937881,2.30722
14.0,3039.9998,9.2093201,2.3450077
14.0,2043.9991,9.8337803,2.3714321
14.0,1373.6262,10.474704,2.3806298
14.0,924.07684,11.118402,2.351053
14.0,620.75903,11.735522,2.2724717
14.0,417.33029,12.301637,2.1781666
14.0,280.59583,12.823156,2.0980401
14.0,188.67896,13.312958,2.0394201
14.0,126.85777,13.80038,2.0245793
14.0,85.318459,14.305953,2.0295486
14.0,57.369469,14.842958,2.0347509
14.0,38.573051,15.388647,2.0099683
14.0,25.937332,15.940049,1.9363698
14.0,17.425045,16.430014,1.8236704
14.0,11.723022,16.86656,1.7007349
14.0,7.8813171,17.236782,1.6027524
14.0,5.2992253,17.564909,1.5561259
14.0,3.5623088,17.876963,1.5756171
14.0,2.3934989,18.170074,1.6726176
14.0,1.6111881,18.494808,1.838908
14.0,1.0826625,18.866228,2.1287057
14.0,0.72875988,19.3001,2.5307739
14.0,0.48894435,19.747477,3.0606403
14.0,0.32829121,20.455128,3.7665381
14.0,0.22118911,21.163441,4.7140369
14.0,0.14901161,22.178518,5.7243199
14.0,0.10011718,23.562819,7.1617465
