cycle number,freq/Hz,Re(Z)/Ohm,-Im(Z)/Ohm
3.0,9997.999,9.3728018,2.4479764
3.0,6812.999,10.17252,2.5721314
3.0,4642.0,10.878054,2.7343228
3.0,3162.0007,11.604026,2.8753011
3.0,2154.0,12.351643,2.9863031
3.0,1467.9995,13.123142,3.0756805
3.0,998.00061,13.933693,3.1660051
3.0,680.99933,14.744027,3.2187555
3.0,463.99887,15.580209,3.2342978
3.0,316.00006,16.410919,3.2103753
3.0,215.00046,17.237328,3.1601408
3.0,146.99995,18.040098,3.0579534
3.0,102.00077,18.781456,2.9497652
3.0,68.000511,19.556248,2.7914522
3.0,46.000347,20.257154,2.6024883
3.0,32.00024,20.820253,2.4172256
3.0,22.000166,21.352535,2.2388744
3.0,14.99895,21.807594,2.0978196
3.0,10.000075,22.246698,2.0079665
3.0,6.998889,22.607067,2.0029943
3.0,4.9988737,22.944805,2.0632153
3.0,2.9988587,23.474449,2.282491
3.0,2.000015,23.927015,2.5938039
3.0,0.99884343,24.97571,3.3512425
3.0,0.99884343,24.882645,3.3998206
3.0,0.0,0.0,0.0
4.0,9997.999,9.1156664,2.2792115
4.0,6812.999,9.9503651,2.4568675
4.0,4642.0,10.631605,2.5478361
4.0,3162.0007,11.315585,2.5831814
4.0,2154.0,11.958058,2.5859106
4.0,1467.9995,12.592685,2.6036212
4.0,998.00061,13.213017,2.6311157
4.0,680.99933,13.863305,2.6790621
4.0,463.99887,14.527842,2.7252481
4.0,316.00006,15.210469,2.7653711
4.0,215.00046,15.922737,2.7907865
4.0,146.99995,16.634426,2.7788215
4.0,102.00077,17.327141,2.7516108
4.0,68.000511,18.090933,2.655205
4.0,46.000347,18.770329,2.5228674
4.0,32.00024,19.367498,2.3646615
4.0,22.000166,19.893244,2.1908517
4.0,14.99895,20.368887,2.0548317
4.0,10.000075,20.798393,1.9383909
4.0,6.998889,21.155729,1.9024454
4.0,4.9988737,21.467768,1.9448712
4.0,2.9988587,21.95554,2.1311548
4.0,2.000015,22.400692,2.355485
4.0,0.99884343,23.271355,3.0302064
4.0,0.99884343,23.245617,3.0685921
4.0,0.0,0.0,0.0
5.0,9997.999,9.1719656,2.0879993
5.0,6812.999,9.6697645,2.3183622
5.0,4642.0,10.298912,2.3814769
5.0,3162.0007,10.925303,2.4081941
5.0,2154.0,11.525702,2.4167967
5.0,1467.9995,12.1162,2.4287586
5.0,998.00061,12.710321,2.4688766
5.0,680.99933,13.287789,2.5059063
5.0,463.99887,13.911537,2.5606599
5.0,316.00006,14.550816,2.6152101
5.0,215.00046,15.216231,2.6559875
5.0,146.99995,15.895864,2.6836555
5.0,102.00077,16.565777,2.6666067
5.0,68.000511,17.31422,2.613019
5.0,46.000347,18.003344,2.5084801
5.0,32.00024,18.587887,2.3649347
5.0,22.000166,19.132065,2.2065527
5.0,14.99895,19.623293,2.0610883
5.0,10.000075,20.070993,1.9410769
5.0,6.998889,20.422531,1.8892304
5.0,4.9988737,20.737326,1.9187847
5.0,2.9988587,21.205824,2.0584328
5.0,2.000015,21.625099,2.2944257
5.0,0.99884343,22.54907,2.9625032
5.0,0.99884343,22.416922,2.9393818
5.0,0.0,0.0,0.0
6.0,9997.999,8.933445,2.0117085
6.0,6812.999,9.627471,2.2912691
6.0,4642.0,10.257171,2.3495688
6.0,3162.0007,10.867928,2.3556256
6.0,2154.0,11.459112,2.3549252
6.0,1467.9995,12.019882,2.3594847
6.0,998.00061,12.576021,2.3833454
6.0,680.99933,13.146213,2.4293478
6.0,463.99887,13.743837,2.4779203
6.0,316.00006,14.361245,2.5496328
6.0,215.00046,15.005392,2.6119366
6.0,146.99995,15.677086,2.6431718
6.0,102.00077,16.333591,2.6554723
6.0,68.000511,17.077255,2.6191256
6.0,46.000347,17.776512,2.5361118
6.0,32.00024,18.38699,2.4064941
6.0,22.000166,18.951244,2.2595434
6.0,14.99895,19.45149,2.1062241
6.0,10.000075,19.914886,1.9784378
6.0,6.998889,20.286388,1.9306836
6.0,4.9988737,20.613922,1.9174987
6.0,2.9988587,21.09074,2.0138922
6.0,2.000015,21.499409,2.2344458
6.0,0.99884343,22.248993,2.8664029
6.0,0.99884343,22.274719,2.8559473
6.0,0.0,0.0,0.0
7.0,9997.999,8.6911573,2.0494678
7.0,6812.999,9.4666367,2.2206979
7.0,4642.0,10.068003,2.2722974
7.0,3162.0007,10.667192,2.2803514
7.0,2154.0,11.228966,2.279798
7.0,1467.9995,11.770467,2.2881157
7.0,998.00061,12.307852,2.3043556
7.0,680.99933,12.864453,2.3549643
7.0,463.99887,13.442161,2.4171882
7.0,316.00006,14.039615,2.4768827
7.0,215.00046,14.668238,2.5461659
7.0,146.99995,15.32224,2.5832822
7.0,102.00077,15.951914,2.6014135
7.0,68.000511,16.686546,2.5759435
7.0,46.000347,17.373646,2.5010872
7.0,32.00024,17.987499,2.3866696
7.0,22.000166,18.552656,2.2424009
7.0,14.99895,19.057083,2.084733
7.0,10.000075,19.523178,1.9584467
7.0,6.998889,19.880774,1.8898673
7.0,4.9988737,20.20709,1.9023125
7.0,2.9988587,20.6548,2.0086637
7.0,2.000015,21.046543,2.2112408
7.0,0.99884343,21.9491,2.85657
7.0,0.99884343,21.824181,2.7951233
7.0,0.0,0.0,0.0
8.0,9997.999,8.9787827,1.9742903
8.0,6812.999,9.4505558,2.2003028
8.0,4642.0,10.046879,2.2445109
8.0,3162.0007,10.629181,2.2496715
8.0,2154.0,11.187531,2.2527571
8.0,1467.9995,11.724004,2.2526946
8.0,998.00061,12.260443,2.2885475
8.0,680.99933,12.806108,2.3335459
8.0,463.99887,13.371887,2.3858652
8.0,316.00006,13.960557,2.46346
8.0,215.00046,14.582348,2.5279949
8.0,146.99995,15.240311,2.5666814
8.0,102.00077,15.87677,2.581002
8.0,68.000511,16.591412,2.5703681
8.0,46.000347,17.27643,2.5058887
8.0,32.00024,17.897198,2.402909
8.0,22.000166,18.469542,2.2477672
8.0,14.99895,18.9816,2.0891349
8.0,10.000075,19.448463,1.9614704
8.0,6.998889,19.821461,1.8953843
8.0,4.9988737,20.136744,1.8890268
8.0,2.9988587,20.591951,1.9794817
8.0,2.000015,21.006926,2.1878321
8.0,0.99884343,21.894369,2.7552254
8.0,0.99884343,21.771873,2.7698369
8.0,0.0,0.0,0.0
9.0,9997.999,8.6970558,2.2089477
9.0,6812.999,9.41012,2.1805563
9.0,4642.0,10.013911,2.2176957
9.0,3162.0007,10.588779,2.2278433
9.0,2154.0,11.137091,2.222548
9.0,1467.9995,11.659109,2.2386079
9.0,998.00061,12.197459,2.2642474
9.0,680.99933,12.735731,2.3172777
9.0,463.99887,13.298518,2.3701613
9.0,316.00006,13.879529,2.4404216
9.0,215.00046,14.505677,2.5088627
9.0,146.99995,15.147989,2.5627568
9.0,102.00077,15.781442,2.5744512
9.0,68.000511,16.499855,2.5684838
9.0,46.000347,17.184069,2.505846
9.0,32.00024,17.801481,2.3970752
9.0,22.000166,18.388163,2.2557826
9.0,14.99895,18.895695,2.0921655
9.0,10.000075,19.360271,1.961482
9.0,6.998889,19.731091,1.8857032
9.0,4.9988737,20.044827,1.8821052
9.0,2.9988587,20.519114,1.9907373
9.0,2.000015,20.930557,2.1667299
9.0,0.99884343,21.693445,2.6780372
9.0,0.99884343,21.681084,2.723309
9.0,0.0,0.0,0.0
10.0,9997.999,8.6624184,2.0196378
10.0,6812.999,9.4288464,2.1723499
10.0,4642.0,10.005569,2.2004645
10.0,3162.0007,10.569786,2.2055113
10.0,2154.0,11.108594,2.1985579
10.0,1467.9995,11.631772,2.2056029
10.0,998.00061,12.158262,2.2329664
10.0,680.99933,12.677903,2.2814634
10.0,463.99887,13.229239,2.3499081
10.0,316.00006,13.812512,2.4183743
10.0,215.00046,14.434797,2.4833069
10.0,146.99995,15.061072,2.5404029
10.0,102.00077,15.693386,2.5646958
10.0,68.000511,16.412544,2.5545318
10.0,46.000347,17.089603,2.4903035
10.0,32.00024,17.712749,2.3885517
10.0,22.000166,18.293741,2.2550135
10.0,14.99895,18.807552,2.0964403
10.0,10.000075,19.2852,1.9552593
10.0,6.998889,19.638031,1.8863944
10.0,4.9988737,19.959326,1.8805612
10.0,2.9988587,20.439821,1.9774982
10.0,2.000015,20.850845,2.1377218
10.0,0.99884343,21.577255,2.6702564
10.0,0.99884343,21.578625,2.694818
10.0,0.0,0.0,0.0
11.0,9997.999,8.9670935,2.2067966
11.0,6812.999,9.4506445,2.1743882
11.0,4642.0,10.030811,2.197381
11.0,3162.0007,10.590219,2.20102
11.0,2154.0,11.130565,2.2034295
11.0,1467.9995,11.654179,2.2128351
11.0,998.00061,12.184316,2.235126
11.0,680.99933,12.711687,2.2899752
11.0,463.99887,13.257881,2.3557611
11.0,316.00006,13.849752,2.4142888
11.0,215.00046,14.467109,2.4961631
11.0,146.99995,15.098284,2.5448539
11.0,102.00077,15.726281,2.5709019
11.0,68.000511,16.437962,2.5582142
11.0,46.000347,17.131239,2.5130889
11.0,32.00024,17.752193,2.40888
11.0,22.000166,18.336147,2.2712598
11.0,14.99895,18.861351,2.1160393
11.0,10.000075,19.338669,1.9798982
11.0,6.998889,19.704954,1.9079134
11.0,4.9988737,20.031277,1.8768119
11.0,2.9988587,20.497753,1.979984
11.0,2.000015,20.903727,2.163435
11.0,0.99884343,21.672132,2.6528668
11.0,0.99884343,21.646286,2.7044287
11.0,0.0,0.0,0.0
12.0,9997.999,8.9229803,1.9178391
12.0,6812.999,9.4706001,2.1697991
12.0,4642.0,10.052667,2.2011616
12.0,3162.0007,10.613304,2.2003517
12.0,2154.0,11.146161,2.1972048
12.0,1467.9995,11.675318,2.2138472
12.0,998.00061,12.204337,2.2446001
12.0,680.99933,12.731599,2.2948165
12.0,463.99887,13.286683,2.3566477
12.0,316.00006,13.877282,2.4182074
12.0,215.00046,14.490938,2.4986176
12.0,146.99995,15.121218,2.5469861
12.0,102.00077,15.750136,2.5711842
12.0,68.000511,16.473398,2.5648966
12.0,46.000347,17.160664,2.5236382
12.0,32.00024,17.786129,2.4297686
12.0,22.000166,18.371511,2.2903385
12.0,14.99895,18.909018,2.1209559
12.0,10.000075,19.382603,1.9906116
12.0,6.998889,19.765486,1.9136497
12.0,4.9988737,20.080132,1.8869723
12.0,2.9988587,20.553555,1.9706769
12.0,2.000015,20.967924,2.1403117
12.0,0.99884343,21.682978,2.6747663
12.0,0.99884343,21.69305,2.6885445
12.0,0.0,0.0,0.0
