cycle number,freq/Hz,Re(Z)/Ohm,-Im(Z)/Ohm,|Z|/Ohm,Phase(Z)/deg
5.0,10001.0,7.5527201,2.3202269,7.901078013564201,-17.077174656381782
5.0,6723.9995,8.454649,2.4825668,8.8115962021454,-16.363997379753226
5.0,4521.0005,9.1449509,2.5427465,9.491874774072457,-15.538548609462808
5.0,3039.9998,9.8247223,2.5749552,10.156552690461677,-14.68629056341318
5.0,2043.9991,10.495939,2.5992093,10.812984069022182,-13.908883040196033
5.0,1373.6262,11.197389,2.6120582,11.498015848723997,-13.13079086046936
5.0,924.07684,11.902369,2.5905573,12.181025200562729,-12.278957000946834
5.0,620.75903,12.602773,2.5231194,12.852860335201084,-11.321143869750808
5.0,417.33029,13.249752,2.4066522,13.466547548398175,-10.294826671843648
5.0,280.59583,13.837873,2.280443,14.024519579663968,-9.358074214183283
5.0,188.67896,14.386815,2.1852567,14.551831248647709,-8.636811094627953
5.0,126.85777,14.895548,2.1233726,15.046131111310135,-8.112901699074218
5.0,85.318459,15.425632,2.075546,15.564639854411666,-7.6632239319585835
5.0,57.369469,15.962925,2.0186269,16.090053732571207,-7.207208833938675
5.0,38.573051,16.490049,1.9345123,16.603133856632375,-6.691009248602039
5.0,25.937332,16.988895,1.816707,17.085753645797247,-6.103727509617748
5.0,17.425045,17.424116,1.6811215,17.50502750295521,-5.510979432051378
5.0,11.723022,17.797226,1.5654204,17.865939502970786,-5.026723963819812
5.0,7.8813171,18.120792,1.480727,18.181189596827625,-4.671502779527382
5.0,5.2992253,18.406668,1.4608774,18.46454953796747,-4.5378675749748725
5.0,3.5623088,18.69241,1.5131205,18.753552336973925,-4.627910377760521
5.0,2.3934989,18.979322,1.640769,19.05011250599442,-4.9409555271337045
5.0,1.6111881,19.273973,1.8532097,19.362861911321453,-5.492156857904153
5.0,1.0826625,19.650269,2.1680052,19.769504756558472,-6.295953514053404
5.0,0.72875988,20.081738,2.6008127,20.249455000101246,-7.379377285345889
5.0,0.48894435,20.528675,3.2425165,20.783176141013605,-8.9757493646668
5.0,0.32829121,21.251984,3.9735923,21.620274274459963,-10.590600576376103
5.0,0.22118911,22.056162,5.1063876,22.639555571867522,-13.035315343858178
5.0,0.14901161,23.082132,6.2638054,23.916941187252462,-15.182728332479378
5.0,0.10011718,24.609455,7.8178706,25.82139376786949,-17.62388248195449
6.0,10001.0,7.882637,2.3675039,8.23049456535172,-16.71733267904541
6.0,6723.9995,8.3831959,2.390933,8.717484391053752,-15.918437447478563
6.0,4521.0005,9.0453854,2.4227202,9.364217543501496,-14.994187337711185
6.0,3039.9998,9.6862335,2.4262147,9.98547130520229,-14.062163342476056
6.0,2043.9991,10.310505,2.4356644,10.594289708350075,-13.29139110227267
6.0,1373.6262,10.940531,2.4432797,11.210032749925091,-12.588932994136176
6.0,924.07684,11.587871,2.4302576,11.83997070583364,-11.844646506740004
6.0,620.75903,12.244506,2.3803701,12.473735967905125,-11.001259064355935
6.0,417.33029,12.86186,2.3012848,13.06611473967342,-10.144201139380655
6.0,280.59583,13.432361,2.2025833,13.6117484265527,-9.312253477162479
6.0,188.67896,13.959009,2.1211336,14.119247147462572,-8.640251935895531
6.0,126.85777,14.465697,2.0591536,14.611519539192424,-8.101475382432357
6.0,85.318459,14.980255,2.0323107,15.117484137460158,-7.725918286098171
6.0,57.369469,15.510613,1.9944333,15.638314481551964,-7.32717569632725
6.0,38.573051,16.036366,1.9283316,16.151888349215227,-6.856747754089837
6.0,25.937332,16.535355,1.8155739,16.634730943492478,-6.265948425199607
6.0,17.425045,16.977612,1.6888433,17.061403837741455,-5.680793581006367
6.0,11.723022,17.356838,1.5775579,17.428382434583433,-5.193327326687268
6.0,7.8813171,17.686825,1.4966369,17.750033819434446,-4.8367745017476125
6.0,5.2992253,17.981003,1.4760066,18.04148176756146,-4.692717273197824
6.0,3.5623088,18.265631,1.5232335,18.329034784289192,-4.767060837828475
6.0,2.3934989,18.551043,1.6466531,18.623980853179283,-5.072472475677255
6.0,1.6111881,18.875422,1.8606412,18.966906478211502,-5.629733086415345
6.0,1.0826625,19.22616,2.1842186,19.34983305453011,-6.481389895110606
6.0,0.72875988,19.662457,2.6353106,19.838273040648506,-7.6337197523845495
6.0,0.48894435,20.179169,3.1788936,20.42802550543449,-8.952427384023087
6.0,0.32829121,20.847496,4.0432186,21.235953148314344,-10.975834915409767
6.0,0.22118911,21.605379,4.9380679,22.162511507467997,-12.874234284638677
6.0,0.14901161,22.786364,6.1508603,23.601937775755026,-15.106158107102527
6.0,0.10011718,24.107746,7.7585464,25.325450824051856,-17.839626273669218
7.0,10001.0,7.4692521,2.1167948,7.7634107941459245,-15.82279191746985
7.0,6723.9995,8.292305,2.3304355,8.6135504777464,-15.697270028664297
7.0,4521.0005,8.9446411,2.3514383,9.248560238573143,-14.729096537413259
7.0,3039.9998,9.5608683,2.3500097,9.845443018982893,-13.80924142971898
7.0,2043.9991,10.15813,2.3511128,10.426664687004365,-13.03171716485261
7.0,1373.6262,10.760119,2.3585606,11.015578468606781,-12.363398582309172
7.0,924.07684,11.387437,2.3569632,11.628800323125478,-11.693913008265207
7.0,620.75903,12.012326,2.3177516,12.233885254062937,-10.920889089139541
7.0,417.33029,12.610107,2.2496443,12.809203645347024,-10.1151580999708
7.0,280.59583,13.174638,2.1560731,13.349896540557443,-9.294254159896388
7.0,188.67896,13.69052,2.0883315,13.848879605379354,-8.67295766426361
7.0,126.85777,14.193293,2.0492408,14.340465614485245,-8.215644312139297
7.0,85.318459,14.704379,2.0211468,14.84263440777247,-7.826379229577153
7.0,57.369469,15.230639,1.9908975,15.360209542966114,-7.44728479777516
7.0,38.573051,15.76531,1.9298967,15.882994071294332,-6.979090132275865
7.0,25.937332,16.260658,1.8279048,16.36307533903169,-6.413848424981326
7.0,17.425045,16.713726,1.7058518,16.80055258515741,-5.827595831533048
7.0,11.723022,17.102877,1.5973734,17.17731071664469,-5.335828316422884
7.0,7.8813171,17.440214,1.5125898,17.505684570129215,-4.956859268011047
7.0,5.2992253,17.732971,1.4947854,17.79586030173574,-4.818307388519423
7.0,3.5623088,18.036263,1.5288684,18.100945323095356,-4.845172213836855
7.0,2.3934989,18.321682,1.6507622,18.395897563045757,-5.14838182564003
7.0,1.6111881,18.63401,1.8555439,18.72616810361712,-5.686672358371748
7.0,1.0826625,19.002794,2.1397688,19.12288655835958,-6.424605997190752
7.0,0.72875988,19.414944,2.5548863,19.5823260755474,-7.496694271273509
7.0,0.48894435,19.910854,3.1857018,20.16409687954904,-9.090179167168968
7.0,0.32829121,20.57305,3.8469472,20.929629453530413,-10.591404263959245
7.0,0.22118911,21.432758,4.8818274,21.981704989603394,-12.831579314625136
7.0,0.14901161,22.366571,6.0329752,23.16592946682382,-15.09525093558299
7.0,0.10011718,23.76585,7.3773694,24.884557570641203,-17.24533135279537
8.0,10001.0,7.5688515,2.4009306,7.940527739078091,-17.599652501659495
8.0,6723.9995,8.2579937,2.2939646,8.57069037681871,-15.524609939072018
8.0,4521.0005,8.8895369,2.3091049,9.184543088018348,-14.561086372545587
8.0,3039.9998,9.4979315,2.3002625,9.772507884243353,-13.614081401047823
8.0,2043.9991,10.078702,2.2991664,10.33762062273969,-12.85048812215022
8.0,1373.6262,10.665505,2.3101418,10.912825117316425,-12.221440401446971
8.0,924.07684,11.274539,2.3127365,11.509299708538016,-11.592226865451808
8.0,620.75903,11.886676,2.2780027,12.102989821948265,-10.84881736905886
8.0,417.33029,12.483626,2.2143171,12.67849038045257,-10.058377000009234
8.0,280.59583,13.03597,2.1391232,13.210312710366784,-9.318838173483067
8.0,188.67896,13.549554,2.0787785,13.708090080349569,-8.722332949727964
8.0,126.85777,14.05427,2.046803,14.202531737465296,-8.286055114123485
8.0,85.318459,14.559798,2.0296905,14.700590509452137,-7.936101991650083
8.0,57.369469,15.091339,2.0119884,15.224868148350433,-7.593934116096453
8.0,38.573051,15.628785,1.9610108,15.751332766910286,-7.151771882063483
8.0,25.937332,16.142729,1.8662328,16.25024690370078,-6.5945898280842705
8.0,17.425045,16.605207,1.739455,16.69606550088595,-5.980128138552875
8.0,11.723022,17.004122,1.6323678,17.082294624123566,-5.483497253175779
8.0,7.8813171,17.354961,1.5389674,17.423062072144027,-5.067501944900956
8.0,5.2992253,17.670797,1.5137613,17.73551634118913,-4.896264952729612
8.0,3.5623088,17.961201,1.5435035,18.027399824070947,-4.911670340747601
8.0,2.3934989,18.257254,1.6538568,18.33200932618741,-5.176084515940145
8.0,1.6111881,18.574215,1.8405621,18.66518501676802,-5.6590973363030495
8.0,1.0826625,18.927723,2.1421471,19.04855617002946,-6.4569812789889385
8.0,0.72875988,19.368319,2.5613704,19.536949588197157,-7.533387460458931
8.0,0.48894435,19.837225,3.0521402,20.070651596325444,-8.746894248841047
8.0,0.32829121,20.518423,3.8487175,20.876261849328657,-10.62373715103178
8.0,0.22118911,21.218525,4.7445774,21.7425117656681,-12.604307996835493
8.0,0.14901161,22.32937,5.8184662,23.07499325064782,-14.605048322078966
8.0,0.10011718,23.635586,7.3551149,24.753558143337656,-17.285524124675558
9.0,10001.0,7.473918,2.3643894,7.8389914852330564,-17.554874801736542
9.0,6723.9995,8.224185,2.2665441,8.530793695282393,-15.407939477054455
9.0,4521.0005,8.8520775,2.280514,9.141117008889136,-14.446666569303076
9.0,3039.9998,9.4472656,2.2733548,9.716942387583988,-13.53019866178828
9.0,2043.9991,10.023565,2.2705283,10.277507191450944,-12.763197145509613
9.0,1373.6262,10.600919,2.279387,10.843204726478698,-12.134858684076274
9.0,924.07684,11.197284,2.2869978,11.428452559898949,-11.543648261498795
9.0,620.75903,11.808976,2.2598503,12.023262350418296,-10.833551786235194
9.0,417.33029,12.391659,2.2016828,12.58573080611916,-10.074866199579862
9.0,280.59583,12.945854,2.135108,13.120740145318784,-9.365257889832197
9.0,188.67896,13.457407,2.0750971,13.616454426100702,-8.765820538406743
9.0,126.85777,13.958293,2.0443175,14.107203036557433,-8.332242831411754
9.0,85.318459,14.468734,2.0343451,14.61105141831518,-8.003483833026255
9.0,57.369469,15.000091,2.0157712,15.13492859378697,-7.653778605883572
9.0,38.573051,15.545689,1.9718614,15.67024836642773,-7.228962663076652
9.0,25.937332,16.072983,1.8792782,16.182474133187554,-6.668832661094182
9.0,17.425045,16.536665,1.75818,16.629867294558455,-6.068894437942275
9.0,11.723022,16.941723,1.6453274,17.02143003574963,-5.546992226965046
9.0,7.8813171,17.295492,1.5498371,17.364793075605604,-5.120558743187845
9.0,5.2992253,17.607872,1.5158141,17.672997729704566,-4.9203078577803625
9.0,3.5623088,17.904465,1.5468016,17.971156393676715,-4.937634204651325
9.0,2.3934989,18.212584,1.6465877,18.286865970166875,-5.166028716949757
9.0,1.6111881,18.514643,1.8312333,18.604983762865203,-5.648599076683923
9.0,1.0826625,18.870131,2.1025338,18.98690317922603,-6.357744742991653
9.0,0.72875988,19.275606,2.4927485,19.436120542728897,-7.368674495739872
9.0,0.48894435,19.794947,3.0956628,20.035544786806096,-8.888294383535273
9.0,0.32829121,20.383381,3.7216332,20.720346876114387,-10.347189556245983
9.0,0.22118911,21.253134,4.6661038,21.75932511578267,-12.382767408000888
9.0,0.14901161,22.147785,5.8241181,22.900758329124663,-14.733288567535968
9.0,0.10011718,23.414907,7.1038074,24.468795421821316,-16.87718028993225
10.0,10001.0,7.7202716,2.0853207,7.996946667298404,-15.115436380767324
10.0,6723.9995,8.188179,2.2472966,8.490972697189207,-15.347281089540914
10.0,4521.0005,8.8066902,2.2614737,9.092417476918211,-14.401830917013847
10.0,3039.9998,9.3961353,2.2558835,9.663144878427433,-13.500409332116517
10.0,2043.9991,9.9664698,2.2569282,10.218818188727466,-12.759550027572155
10.0,1373.6262,10.541323,2.2695577,10.782874512112171,-12.15036485035217
10.0,924.07684,11.139428,2.2740922,11.369184293575545,-11.538272380657977
10.0,620.75903,11.743655,2.2505641,11.957360558552786,-10.848678197804107
10.0,417.33029,12.326882,2.1925735,12.520359355658536,-10.085679412328163
10.0,280.59583,12.873356,2.127712,13.048005711896357,-9.38501813987898
10.0,188.67896,13.391425,2.0760045,13.551385841110319,-8.812126920040733
10.0,126.85777,13.894864,2.0474484,14.044902652890071,-8.382377664975802
10.0,85.318459,14.406186,2.0410404,14.550052954578144,-8.063885781851528
10.0,57.369469,14.932437,2.0278385,15.069499120443627,-7.7335102599853425
10.0,38.573051,15.48555,1.9778759,15.611350097871126,-7.2786352697247105
10.0,25.937332,16.011967,1.8890986,16.12302021116425,-6.728675542710326
10.0,17.425045,16.480888,1.7676102,16.575406935809692,-6.121692822522465
10.0,11.723022,16.895958,1.6473451,16.976075595268124,-5.568700782241497
10.0,7.8813171,17.25317,1.5602236,17.323572747297163,-5.167266869812578
10.0,5.2992253,17.563875,1.5216912,17.62966956933063,-4.951601977287504
10.0,3.5623088,17.855406,1.5480223,17.922385345319782,-4.955021236531959
10.0,2.3934989,18.161533,1.6361048,18.23507937538721,-5.147667819274165
10.0,1.6111881,18.481211,1.8317094,18.57176134222517,-5.66021263707309
10.0,1.0826625,18.819269,2.1004438,18.936122883296868,-6.368501576034879
10.0,0.72875988,19.223562,2.5082254,19.386503826761782,-7.433764981416999
10.0,0.48894435,19.784401,3.0294433,20.014995619203013,-8.70567220934776
10.0,0.32829121,20.323971,3.7419398,20.665573078810688,-10.432159495015771
10.0,0.22118911,21.169693,4.5565772,21.65452140994598,-12.147055232295878
10.0,0.14901161,22.139277,5.7708969,22.879047994030664,-14.609808070000204
10.0,0.10011718,23.291628,7.0964708,24.348713163237942,-16.94487969741077
11.0,10001.0,7.6257877,2.35358,7.980725334320891,-17.15202263442502
11.0,6723.9995,8.2163239,2.2438517,8.517208984245022,-15.274823007903294
11.0,4521.0005,8.8347712,2.2528517,9.117484463301397,-14.305460774982276
11.0,3039.9998,9.4178438,2.242336,9.681108024296313,-13.392453065617948
11.0,2043.9991,9.9823523,2.2440882,10.231485194764957,-12.669778734673029
11.0,1373.6262,10.553363,2.258182,10.79225910339874,-12.077870722311932
11.0,924.07684,11.148715,2.2679362,11.377055012545883,-11.498541701434144
11.0,620.75903,11.743325,2.2471287,11.956390318569762,-10.832807409652494
11.0,417.33029,12.332633,2.1983914,12.527041209331234,-10.107271608755722
11.0,280.59583,12.880877,2.1347334,13.05657225224923,-9.410035600354666
11.0,188.67896,13.396808,2.0828781,13.557759614638535,-8.83734721053886
11.0,126.85777,13.905709,2.0637715,14.058018907260484,-8.441750961789866
11.0,85.318459,14.418803,2.0546691,14.564461715535655,-8.110007607931935
11.0,57.369469,14.956135,2.0447063,15.095257466882924,-7.784847633822301
11.0,38.573051,15.509575,2.0000687,15.638004715606934,-7.348139552555558
11.0,25.937332,16.042263,1.9044609,16.154911744754216,-6.770195338894139
11.0,17.425045,16.521702,1.7903496,16.6184231702958,-6.184639031573694
11.0,11.723022,16.932358,1.665853,17.01410631381422,-5.618837904295022
11.0,7.8813171,17.299248,1.5738852,17.37069647389773,-5.198457113804901
11.0,5.2992253,17.612661,1.5295585,17.678952930132578,-4.963356777446627
11.0,3.5623088,17.910007,1.5523649,17.9771573815996,-4.953779148765318
11.0,2.3934989,18.218025,1.6408385,18.291768254701548,-5.1465589131207174
11.0,1.6111881,18.527691,1.8360047,18.618438362276873,-5.659258941215296
11.0,1.0826625,18.872038,2.0852842,18.986896230511547,-6.305374392852602
11.0,0.72875988,19.274359,2.4821978,19.433533409527097,-7.338296345976235
11.0,0.48894435,19.826733,3.0348959,20.0576652324523,-8.702765565434516
11.0,0.32829121,20.361086,3.7146733,20.697164560034036,-10.339321370358348
11.0,0.22118911,21.224087,4.5460997,21.705503713710705,-12.089804104569792
11.0,0.14901161,22.164909,5.7387514,22.895773815472648,-14.51578707864729
11.0,0.10011718,23.320812,7.0429149,24.361094446432123,-16.80438296471164
12.0,10001.0,7.5679893,1.9806638,7.822882533538704,-14.666271030038272
12.0,6723.9995,8.2204151,2.2384145,8.519725575986486,-15.232300736262989
12.0,4521.0005,8.838603,2.246336,9.119590364512268,-14.259845330797486
12.0,3039.9998,9.4167309,2.2350547,9.67834130184542,-13.352045951618956
12.0,2043.9991,9.9744606,2.2396932,10.222822012100114,-12.65544706336129
12.0,1373.6262,10.54068,2.2498996,10.778125211393686,-12.048924092463505
12.0,924.07684,11.130484,2.260694,11.357746758749817,-11.481073991953485
12.0,620.75903,11.732437,2.2458475,11.945455577424632,-10.83658683316768
12.0,417.33029,12.319657,2.2005708,12.514649833034149,-10.127520305684108
12.0,280.59583,12.867977,2.1420522,13.045045791412686,-9.451011929639966
12.0,188.67896,13.386268,2.089149,13.548310393256607,-8.87039985450662
12.0,126.85777,13.897497,2.0645895,14.050016109190738,-8.449966844250056
12.0,85.318459,14.413437,2.0616264,14.560132882846434,-8.14009046872326
12.0,57.369469,14.950429,2.050545,15.09039635268292,-7.809746483885926
12.0,38.573051,15.511815,2.0099885,15.641497957815846,-7.383128540688852
12.0,25.937332,16.044605,1.9166125,16.158674236495433,-6.8120033266973525
12.0,17.425045,16.520823,1.7963775,16.618199803824577,-6.205627398277565
12.0,11.723022,16.951981,1.6762981,17.034659818864146,-5.647338791073764
12.0,7.8813171,17.311598,1.5785685,17.383420371802444,-5.2101416226531265
12.0,5.2992253,17.633327,1.5269542,17.699316659629172,-4.949169768174439
12.0,3.5623088,17.933432,1.5525806,18.000513598731576,-4.948024578526101
12.0,2.3934989,18.236637,1.647952,18.31094412814569,-5.163503501031782
12.0,1.6111881,18.550722,1.8246341,18.640240779565236,-5.617497751236981
12.0,1.0826625,18.906176,2.093385,19.021717895637106,-6.318334066257027
12.0,0.72875988,19.324488,2.4636433,19.480897689063994,-7.2653405710699115
12.0,0.48894435,19.792084,3.0395551,20.024122559278144,-8.73094472561738
12.0,0.32829121,20.451809,3.6468589,20.774409045963022,-10.11041805353794
12.0,0.22118911,21.223721,4.6309595,21.723078027215234,-12.308864822583894
12.0,0.14901161,22.119087,5.6488514,22.829006370248596,-14.326185085056455
12.0,0.10011718,23.44875,6.9428649,24.455004591742608,-16.493325221026986
13.0,10001.0,7.5665936,1.9712315,7.819149079928916,-14.601996094832801
13.0,6723.9995,8.2122564,2.2268178,8.508811473627665,-15.171389498709921
13.0,4521.0005,8.8277025,2.2328782,9.105716692525718,-14.194668949997634
13.0,3039.9998,9.4003782,2.219481,9.658840831714551,-13.284561996156599
13.0,2043.9991,9.9563408,2.2234149,10.201583011635334,-12.588539337128921
13.0,1373.6262,10.519801,2.2380497,10.755234982987172,-12.010405876403228
13.0,924.07684,11.100069,2.2524111,11.326291871930733,-11.470636812246402
13.0,620.75903,11.70003,2.2389872,11.91233670119611,-10.833483700877597
13.0,417.33029,12.285861,2.1948524,12.480374896977525,-10.128958964373126
13.0,280.59583,12.834298,2.137954,13.011151081242582,-9.45756298835601
13.0,188.67896,13.351514,2.0821724,13.512896358498343,-8.863895180153017
13.0,126.85777,13.862223,2.0643523,14.015091042167521,-8.470198021231472
13.0,85.318459,14.382479,2.0649283,14.52995633405627,-8.170264882632825
13.0,57.369469,14.915426,2.0522065,15.055945147353528,-7.834111133555319
13.0,38.573051,15.470811,2.015667,15.601567435761382,-7.423160243830839
13.0,25.937332,16.011135,1.9299809,16.1270353835598,-6.873267344119853
13.0,17.425045,16.498085,1.8078887,16.596845188734292,-6.253618833546538
13.0,11.723022,16.921576,1.6829424,17.0050589368427,-5.679698109697705
13.0,7.8813171,17.279816,1.5838891,17.35225477207371,-5.23716687247509
13.0,5.2992253,17.601097,1.5400884,17.668347061432303,-5.000620086096564
13.0,3.5623088,17.903612,1.5583773,17.971306642971157,-4.974636750433083
13.0,2.3934989,18.207939,1.6489393,18.282451789702755,-5.174679260920713
13.0,1.6111881,18.524651,1.8252621,18.614356728221832,-5.627276666285933
13.0,1.0826625,18.882139,2.1050112,18.99911169943075,-6.361159868899715
13.0,0.72875988,19.314476,2.5009882,19.475726562342036,-7.378048713201809
13.0,0.48894435,19.763418,2.9794765,19.986744888970197,-8.573187580636484
13.0,0.32829121,20.44158,3.7250304,20.77821080789499,-10.327580152215084
13.0,0.22118911,21.113892,4.5898252,21.607011148102345,-12.264381623042544
13.0,0.14901161,22.163548,5.6022363,22.860619228475453,-14.185413050841573
13.0,0.10011718,23.456268,7.0529346,24.493680714823185,-16.73521453140251
14.0,10001.0,7.6243587,2.3418345,7.97590336022547,-17.074427389567077
14.0,6723.9995,8.2191095,2.2205763,8.513795867714467,-15.118779796127308
14.0,4521.0005,8.8256626,2.2284374,9.102650909199886,-14.1707187618366
14.0,3039.9998,9.3956556,2.2192035,9.654180872980556,-13.289399583771784
14.0,2043.9991,9.9556913,2.2231042,10.200881410199479,-12.587631257019185
