cycle number	freq/Hz	Re(Z)/Ohm	-Im(Z)/Ohm	
5.000000000000000E+000	9.9979990E+003	9.2164860E+000	1.8531556E+000
5.000000000000000E+000	6.8129990E+003	9.6851416E+000	2.2397859E+000
5.000000000000000E+000	4.6420000E+003	1.0270120E+001	2.4534132E+000
5.000000000000000E+000	3.1620007E+003	1.0894736E+001	2.6647394E+000
5.000000000000000E+000	2.1540000E+003	1.1580852E+001	2.8742609E+000
5.000000000000000E+000	1.4679995E+003	1.2332241E+001	3.1009538E+000
5.000000000000000E+000	9.9800061E+002	1.3174377E+001	3.2798562E+000
5.000000000000000E+000	6.8099933E+002	1.4077933E+001	3.4304028E+000
5.000000000000000E+000	4.6399887E+002	1.5021389E+001	3.4953816E+000
5.000000000000000E+000	3.1600006E+002	1.5971335E+001	3.4643807E+000
5.000000000000000E+000	2.1500046E+002	1.6874941E+001	3.3681946E+000
5.000000000000000E+000	1.4699995E+002	1.7718670E+001	3.2516544E+000
5.000000000000000E+000	1.0200077E+002	1.8498386E+001	3.0956008E+000
5.000000000000000E+000	6.8000511E+001	1.9303364E+001	2.9224644E+000
5.000000000000000E+000	4.6000347E+001	2.0017426E+001	2.6989543E+000
5.000000000000000E+000	3.2000240E+001	2.0619053E+001	2.5004523E+000
5.000000000000000E+000	2.2000166E+001	2.1163879E+001	2.3112524E+000
5.000000000000000E+000	1.4998950E+001	2.1648912E+001	2.1415787E+000
5.000000000000000E+000	1.0000075E+001	2.2091667E+001	2.0342326E+000
5.000000000000000E+000	6.9988890E+000	2.2450497E+001	2.0034685E+000
5.000000000000000E+000	4.9988737E+000	2.2774561E+001	2.0481884E+000
5.000000000000000E+000	2.9988587E+000	2.3298466E+001	2.2241912E+000
5.000000000000000E+000	2.0000150E+000	2.3739824E+001	2.4847159E+000
5.000000000000000E+000	9.9884343E-001	2.4693773E+001	3.3691747E+000
5.000000000000000E+000	9.9884343E-001	2.4633799E+001	3.2742498E+000
5.000000000000000E+000	0.0000000E+000	0.0000000E+000	0.0000000E+000
6.000000000000000E+000	9.9979990E+003	8.8506222E+000	1.8409389E+000
6.000000000000000E+000	6.8129990E+003	9.3771248E+000	2.1927321E+000
6.000000000000000E+000	4.6420000E+003	9.9755630E+000	2.3192325E+000
6.000000000000000E+000	3.1620007E+003	1.0591581E+001	2.4219766E+000
6.000000000000000E+000	2.1540000E+003	1.1205015E+001	2.5017164E+000
6.000000000000000E+000	1.4679995E+003	1.1816003E+001	2.6056068E+000
6.000000000000000E+000	9.9800061E+002	1.2467820E+001	2.7104664E+000
6.000000000000000E+000	6.8099933E+002	1.3157559E+001	2.8191993E+000
6.000000000000000E+000	4.6399887E+002	1.3888193E+001	2.9025011E+000
6.000000000000000E+000	3.1600006E+002	1.4660402E+001	2.9520762E+000
6.000000000000000E+000	2.1500046E+002	1.5431472E+001	2.9587207E+000
6.000000000000000E+000	1.4699995E+002	1.6198582E+001	2.9264956E+000
6.000000000000000E+000	1.0200077E+002	1.6902407E+001	2.8639379E+000
6.000000000000000E+000	6.8000511E+001	1.7685822E+001	2.7788415E+000
6.000000000000000E+000	4.6000347E+001	1.8393213E+001	2.6456289E+000
6.000000000000000E+000	3.2000240E+001	1.9003098E+001	2.4864058E+000
6.000000000000000E+000	2.2000166E+001	1.9578588E+001	2.3060989E+000
6.000000000000000E+000	1.4998950E+001	2.0088156E+001	2.1260235E+000
6.000000000000000E+000	1.0000075E+001	2.0538313E+001	1.9981842E+000
6.000000000000000E+000	6.9988890E+000	2.0908348E+001	1.9447931E+000
6.000000000000000E+000	4.9988737E+000	2.1219179E+001	1.9505432E+000
6.000000000000000E+000	2.9988587E+000	2.1712385E+001	2.0939584E+000
6.000000000000000E+000	2.0000150E+000	2.2152384E+001	2.3317630E+000
6.000000000000000E+000	9.9884343E-001	2.3004368E+001	2.9407246E+000
6.000000000000000E+000	9.9884343E-001	2.2954012E+001	2.9691057E+000
6.000000000000000E+000	0.0000000E+000	0.0000000E+000	0.0000000E+000
7.000000000000000E+000	9.9979990E+003	8.5278625E+000	1.7287064E+000
7.000000000000000E+000	6.8129990E+003	9.1258020E+000	2.0596948E+000
7.000000000000000E+000	4.6420000E+003	9.6749153E+000	2.1756120E+000
7.000000000000000E+000	3.1620007E+003	1.0241253E+001	2.2638836E+000
7.000000000000000E+000	2.1540000E+003	1.0810197E+001	2.3476384E+000
7.000000000000000E+000	1.4679995E+003	1.1392037E+001	2.4425397E+000
7.000000000000000E+000	9.9800061E+002	1.2011829E+001	2.5564866E+000
7.000000000000000E+000	6.8099933E+002	1.2655127E+001	2.6536682E+000
7.000000000000000E+000	4.6399887E+002	1.3334455E+001	2.7393823E+000
7.000000000000000E+000	3.1600006E+002	1.4050651E+001	2.7930555E+000
7.000000000000000E+000	2.1500046E+002	1.4769621E+001	2.8111386E+000
7.000000000000000E+000	1.4699995E+002	1.5491439E+001	2.8173048E+000
7.000000000000000E+000	1.0200077E+002	1.6177502E+001	2.8024087E+000
7.000000000000000E+000	6.8000511E+001	1.6941816E+001	2.7358749E+000
7.000000000000000E+000	4.6000347E+001	1.7668102E+001	2.6361256E+000
7.000000000000000E+000	3.2000240E+001	1.8305923E+001	2.5236087E+000
7.000000000000000E+000	2.2000166E+001	1.8905710E+001	2.3515334E+000
7.000000000000000E+000	1.4998950E+001	1.9432283E+001	2.1825991E+000
7.000000000000000E+000	1.0000075E+001	1.9910706E+001	2.0333188E+000
7.000000000000000E+000	6.9988890E+000	2.0287058E+001	1.9578334E+000
7.000000000000000E+000	4.9988737E+000	2.0605366E+001	1.9434445E+000
7.000000000000000E+000	2.9988587E+000	2.1090643E+001	2.0584030E+000
7.000000000000000E+000	2.0000150E+000	2.1505444E+001	2.2599816E+000
7.000000000000000E+000	9.9884343E-001	2.2293726E+001	2.8323853E+000
7.000000000000000E+000	9.9884343E-001	2.2289955E+001	2.8631094E+000
7.000000000000000E+000	0.0000000E+000	0.0000000E+000	0.0000000E+000
8.000000000000000E+000	9.9979990E+003	8.3582697E+000	1.8790582E+000
8.000000000000000E+000	6.8129990E+003	9.0518312E+000	2.0182931E+000
8.000000000000000E+000	4.6420000E+003	9.5953598E+000	2.1206005E+000
8.000000000000000E+000	3.1620007E+003	1.0148854E+001	2.2009144E+000
8.000000000000000E+000	2.1540000E+003	1.0698174E+001	2.2827516E+000
8.000000000000000E+000	1.4679995E+003	1.1260246E+001	2.3681786E+000
8.000000000000000E+000	9.9800061E+002	1.1846543E+001	2.4678850E+000
8.000000000000000E+000	6.8099933E+002	1.2477813E+001	2.5706117E+000
8.000000000000000E+000	4.6399887E+002	1.3132752E+001	2.6530352E+000
8.000000000000000E+000	3.1600006E+002	1.3816265E+001	2.7168081E+000
8.000000000000000E+000	2.1500046E+002	1.4529606E+001	2.7544036E+000
8.000000000000000E+000	1.4699995E+002	1.5218252E+001	2.7756510E+000
8.000000000000000E+000	1.0200077E+002	1.5884232E+001	2.7731895E+000
8.000000000000000E+000	6.8000511E+001	1.6651758E+001	2.7431405E+000
8.000000000000000E+000	4.6000347E+001	1.7384478E+001	2.6771989E+000
8.000000000000000E+000	3.2000240E+001	1.8035814E+001	2.5608635E+000
8.000000000000000E+000	2.2000166E+001	1.8657362E+001	2.4127429E+000
8.000000000000000E+000	1.4998950E+001	1.9210831E+001	2.2343473E+000
8.000000000000000E+000	1.0000075E+001	1.9708353E+001	2.0773935E+000
8.000000000000000E+000	6.9988890E+000	2.0102690E+001	1.9800518E+000
8.000000000000000E+000	4.9988737E+000	2.0437216E+001	1.9544894E+000
8.000000000000000E+000	2.9988587E+000	2.0914696E+001	2.0417571E+000
8.000000000000000E+000	2.0000150E+000	2.1319433E+001	2.2304955E+000
8.000000000000000E+000	9.9884343E-001	2.2176525E+001	2.8912876E+000
8.000000000000000E+000	9.9884343E-001	2.2084055E+001	2.8283050E+000
8.000000000000000E+000	0.0000000E+000	0.0000000E+000	0.0000000E+000
9.000000000000000E+000	9.9979990E+003	8.2466192E+000	1.8621956E+000
9.000000000000000E+000	6.8129990E+003	8.9291725E+000	1.9646324E+000
9.000000000000000E+000	4.6420000E+003	9.4514790E+000	2.0629020E+000
9.000000000000000E+000	3.1620007E+003	9.9822025E+000	2.1248848E+000
9.000000000000000E+000	2.1540000E+003	1.0513314E+001	2.1992846E+000
9.000000000000000E+000	1.4679995E+003	1.1045695E+001	2.2818387E+000
9.000000000000000E+000	9.9800061E+002	1.1617706E+001	2.3603196E+000
9.000000000000000E+000	6.8099933E+002	1.2205923E+001	2.4698815E+000
9.000000000000000E+000	4.6399887E+002	1.2837514E+001	2.5577853E+000
9.000000000000000E+000	3.1600006E+002	1.3493469E+001	2.6254954E+000
9.000000000000000E+000	2.1500046E+002	1.4174840E+001	2.6747522E+000
9.000000000000000E+000	1.4699995E+002	1.4854872E+001	2.7075016E+000
9.000000000000000E+000	1.0200077E+002	1.5512024E+001	2.7112329E+000
9.000000000000000E+000	6.8000511E+001	1.6251621E+001	2.6954367E+000
9.000000000000000E+000	4.6000347E+001	1.6973873E+001	2.6354375E+000
9.000000000000000E+000	3.2000240E+001	1.7613419E+001	2.5298290E+000
9.000000000000000E+000	2.2000166E+001	1.8243282E+001	2.3952513E+000
9.000000000000000E+000	1.4998950E+001	1.8800091E+001	2.2236826E+000
9.000000000000000E+000	1.0000075E+001	1.9306454E+001	2.0612700E+000
9.000000000000000E+000	6.9988890E+000	1.9678019E+001	1.9743676E+000
9.000000000000000E+000	4.9988737E+000	2.0025967E+001	1.9362750E+000
9.000000000000000E+000	2.9988587E+000	2.0495937E+001	2.0010417E+000
9.000000000000000E+000	2.0000150E+000	2.0879677E+001	2.1938694E+000
9.000000000000000E+000	9.9884343E-001	2.1678539E+001	2.8500388E+000
9.000000000000000E+000	9.9884343E-001	2.1638929E+001	2.7492676E+000
9.000000000000000E+000	0.0000000E+000	0.0000000E+000	0.0000000E+000
1.000000000000000E+001	9.9979990E+003	8.2242565E+000	1.8556373E+000
1.000000000000000E+001	6.8129990E+003	8.9134121E+000	1.9597723E+000
1.000000000000000E+001	4.6420000E+003	9.4440775E+000	2.0307543E+000
1.000000000000000E+001	3.1620007E+003	9.9655542E+000	2.0821803E+000
1.000000000000000E+001	2.1540000E+003	1.0474263E+001	2.1459286E+000
1.000000000000000E+001	1.4679995E+003	1.0997082E+001	2.2201898E+000
1.000000000000000E+001	9.9800061E+002	1.1542718E+001	2.3148293E+000
1.000000000000000E+001	6.8099933E+002	1.2115643E+001	2.4088309E+000
1.000000000000000E+001	4.6399887E+002	1.2732781E+001	2.5008097E+000
1.000000000000000E+001	3.1600006E+002	1.3373019E+001	2.5699568E+000
1.000000000000000E+001	2.1500046E+002	1.4035075E+001	2.6327901E+000
1.000000000000000E+001	1.4699995E+002	1.4709365E+001	2.6616602E+000
1.000000000000000E+001	1.0200077E+002	1.5358054E+001	2.6822989E+000
1.000000000000000E+001	6.8000511E+001	1.6102484E+001	2.6778910E+000
1.000000000000000E+001	4.6000347E+001	1.6810257E+001	2.6237400E+000
1.000000000000000E+001	3.2000240E+001	1.7448572E+001	2.5395274E+000
1.000000000000000E+001	2.2000166E+001	1.8083719E+001	2.3852513E+000
1.000000000000000E+001	1.4998950E+001	1.8643728E+001	2.2310150E+000
1.000000000000000E+001	1.0000075E+001	1.9147144E+001	2.0652289E+000
1.000000000000000E+001	6.9988890E+000	1.9538944E+001	1.9647096E+000
1.000000000000000E+001	4.9988737E+000	1.9880198E+001	1.9328998E+000
1.000000000000000E+001	2.9988587E+000	2.0340452E+001	1.9941945E+000
1.000000000000000E+001	2.0000150E+000	2.0732573E+001	2.1691689E+000
1.000000000000000E+001	9.9884343E-001	2.1605688E+001	2.7709885E+000
1.000000000000000E+001	9.9884343E-001	2.1502815E+001	2.7336411E+000
1.000000000000000E+001	0.0000000E+000	0.0000000E+000	0.0000000E+000
1.100000000000000E+001	9.9979990E+003	8.4544125E+000	1.9837933E+000
1.100000000000000E+001	6.8129990E+003	8.8959675E+000	1.9413403E+000
1.100000000000000E+001	4.6420000E+003	9.4054394E+000	2.0243757E+000
1.100000000000000E+001	3.1620007E+003	9.9266968E+000	2.0887303E+000
1.100000000000000E+001	2.1540000E+003	1.0439447E+001	2.1466014E+000
1.100000000000000E+001	1.4679995E+003	1.0965791E+001	2.2292776E+000
1.100000000000000E+001	9.9800061E+002	1.1522342E+001	2.3187380E+000
1.100000000000000E+001	6.8099933E+002	1.2095793E+001	2.4119425E+000
1.100000000000000E+001	4.6399887E+002	1.2710416E+001	2.4978206E+000
1.100000000000000E+001	3.1600006E+002	1.3344487E+001	2.5677812E+000
1.100000000000000E+001	2.1500046E+002	1.4009129E+001	2.6232867E+000
1.100000000000000E+001	1.4699995E+002	1.4682711E+001	2.6659768E+000
1.100000000000000E+001	1.0200077E+002	1.5320299E+001	2.6765642E+000
1.100000000000000E+001	6.8000511E+001	1.6064896E+001	2.6766374E+000
1.100000000000000E+001	4.6000347E+001	1.6771334E+001	2.6357489E+000
1.100000000000000E+001	3.2000240E+001	1.7429090E+001	2.5501258E+000
1.100000000000000E+001	2.2000166E+001	1.8062378E+001	2.4309809E+000
1.100000000000000E+001	1.4998950E+001	1.8629070E+001	2.2648213E+000
1.100000000000000E+001	1.0000075E+001	1.9157139E+001	2.0872438E+000
1.100000000000000E+001	6.9988890E+000	1.9545485E+001	1.9765160E+000
1.100000000000000E+001	4.9988737E+000	1.9875629E+001	1.9444847E+000
1.100000000000000E+001	2.9988587E+000	2.0350380E+001	1.9866863E+000
1.100000000000000E+001	2.0000150E+000	2.0740410E+001	2.1550829E+000
1.100000000000000E+001	9.9884343E-001	2.1595417E+001	2.7905943E+000
1.100000000000000E+001	9.9884343E-001	2.1500635E+001	2.7225728E+000
1.100000000000000E+001	0.0000000E+000	0.0000000E+000	0.0000000E+000
1.200000000000000E+001	9.9979990E+003	8.3963623E+000	1.6658074E+000
1.200000000000000E+001	6.8129990E+003	8.9251547E+000	1.9562285E+000
1.200000000000000E+001	4.6420000E+003	9.4431658E+000	2.0232551E+000
1.200000000000000E+001	3.1620007E+003	9.9636593E+000	2.0718641E+000
1.200000000000000E+001	2.1540000E+003	1.0472222E+001	2.1272023E+000
1.200000000000000E+001	1.4679995E+003	1.0984277E+001	2.1934278E+000
1.200000000000000E+001	9.9800061E+002	1.1528201E+001	2.2754884E+000
1.200000000000000E+001	6.8099933E+002	1.2084859E+001	2.3742983E+000
1.200000000000000E+001	4.6399887E+002	1.2680734E+001	2.4636092E+000
1.200000000000000E+001	3.1600006E+002	1.3314081E+001	2.5430083E+000
1.200000000000000E+001	2.1500046E+002	1.3967467E+001	2.6058900E+000
1.200000000000000E+001	1.4699995E+002	1.4626865E+001	2.6343317E+000
1.200000000000000E+001	1.0200077E+002	1.5267220E+001	2.6666505E+000
1.200000000000000E+001	6.8000511E+001	1.5994628E+001	2.6703715E+000
1.200000000000000E+001	4.6000347E+001	1.6716434E+001	2.6393104E+000
1.200000000000000E+001	3.2000240E+001	1.7358147E+001	2.5550783E+000
1.200000000000000E+001	2.2000166E+001	1.7990099E+001	2.4304833E+000
1.200000000000000E+001	1.4998950E+001	1.8583296E+001	2.2618532E+000
1.200000000000000E+001	1.0000075E+001	1.9101627E+001	2.1037958E+000
1.200000000000000E+001	6.9988890E+000	1.9509789E+001	1.9943880E+000
1.200000000000000E+001	4.9988737E+000	1.9843828E+001	1.9571655E+000
1.200000000000000E+001	2.9988587E+000	2.0335554E+001	2.0091505E+000
1.200000000000000E+001	2.0000150E+000	2.0721252E+001	2.1694403E+000
1.200000000000000E+001	9.9884343E-001	2.1447712E+001	2.6874819E+000
1.200000000000000E+001	9.9884343E-001	2.1479771E+001	2.6901588E+000
1.200000000000000E+001	0.0000000E+000	0.0000000E+000	0.0000000E+000
1.300000000000000E+001	9.9979990E+003	8.5629625E+000	1.7324293E+000
1.300000000000000E+001	6.8129990E+003	8.9668341E+000	1.9519196E+000
1.300000000000000E+001	4.6420000E+003	9.4906521E+000	2.0228693E+000
1.300000000000000E+001	3.1620007E+003	9.9967060E+000	2.0599737E+000
1.300000000000000E+001	2.1540000E+003	1.0498558E+001	2.1089022E+000
1.300000000000000E+001	1.4679995E+003	1.1004811E+001	2.1761179E+000
1.300000000000000E+001	9.9800061E+002	1.1533995E+001	2.2615943E+000
1.300000000000000E+001	6.8099933E+002	1.2087169E+001	2.3479853E+000
1.300000000000000E+001	4.6399887E+002	1.2678946E+001	2.4439373E+000
1.300000000000000E+001	3.1600006E+002	1.3304090E+001	2.5270846E+000
1.300000000000000E+001	2.1500046E+002	1.3960771E+001	2.5880475E+000
1.300000000000000E+001	1.4699995E+002	1.4621449E+001	2.6392710E+000
1.300000000000000E+001	1.0200077E+002	1.5260634E+001	2.6525087E+000
1.300000000000000E+001	6.8000511E+001	1.5981983E+001	2.6623492E+000
1.300000000000000E+001	4.6000347E+001	1.6704500E+001	2.6478102E+000
1.300000000000000E+001	3.2000240E+001	1.7359039E+001	2.5695107E+000
1.300000000000000E+001	2.2000166E+001	1.8002207E+001	2.4348078E+000
1.300000000000000E+001	1.4998950E+001	1.8583717E+001	2.2756431E+000
1.300000000000000E+001	1.0000075E+001	1.9113264E+001	2.0957322E+000
1.300000000000000E+001	6.9988890E+000	1.9505058E+001	2.0046189E+000
1.300000000000000E+001	4.9988737E+000	1.9853079E+001	1.9623302E+000
1.300000000000000E+001	2.9988587E+000	2.0342203E+001	2.0124791E+000
1.300000000000000E+001	2.0000150E+000	2.0735010E+001	2.1737783E+000
1.300000000000000E+001	9.9884343E-001	2.1512093E+001	2.6396248E+000
1.300000000000000E+001	9.9884343E-001	2.1481668E+001	2.6957796E+000
1.300000000000000E+001	0.0000000E+000	0.0000000E+000	0.0000000E+000
1.400000000000000E+001	9.9979990E+003	8.3644896E+000	1.9964168E+000
1.400000000000000E+001	6.8129990E+003	8.9990234E+000	1.9735293E+000
1.400000000000000E+001	4.6420000E+003	9.5269632E+000	2.0241237E+000
1.400000000000000E+001	3.1620007E+003	1.0042078E+001	2.0766332E+000
1.400000000000000E+001	2.1540000E+003	1.0546905E+001	2.1139083E+000
1.400000000000000E+001	1.4679995E+003	1.1059951E+001	2.1842275E+000
1.400000000000000E+001	9.9800061E+002	1.1581257E+001	2.2555971E+000
1.400000000000000E+001	6.8099933E+002	1.2139233E+001	2.3531690E+000
1.400000000000000E+001	4.6399887E+002	1.2730516E+001	2.4459782E+000
1.400000000000000E+001	3.1600006E+002	1.3356153E+001	2.5320685E+000
1.400000000000000E+001	2.1500046E+002	1.4004736E+001	2.5886645E+000
1.400000000000000E+001	1.4699995E+002	1.4661818E+001	2.6301060E+000
1.400000000000000E+001	1.0200077E+002	1.5307806E+001	2.6672258E+000
1.400000000000000E+001	6.8000511E+001	1.6020966E+001	2.6763866E+000
1.400000000000000E+001	4.6000347E+001	1.6751528E+001	2.6511376E+000
1.400000000000000E+001	3.2000240E+001	1.7412975E+001	2.5795627E+000
1.400000000000000E+001	2.2000166E+001	1.8062483E+001	2.4546797E+000
1.400000000000000E+001	1.4998950E+001	1.8658653E+001	2.2919457E+000
1.400000000000000E+001	1.0000075E+001	1.9191084E+001	2.1322684E+000
1.400000000000000E+001	6.9988890E+000	1.9596903E+001	2.0216436E+000
1.400000000000000E+001	4.9988737E+000	1.9943316E+001	1.9738940E+000
1.400000000000000E+001	2.9988587E+000	2.0410620E+001	1.9962443E+000
1.400000000000000E+001	2.0000150E+000	2.0810249E+001	2.1649413E+000
1.400000000000000E+001	9.9884343E-001	2.1690769E+001	2.7115371E+000
1.400000000000000E+001	9.9884343E-001	2.1555336E+001	2.7043829E+000
1.400000000000000E+001	0.0000000E+000	0.0000000E+000	0.0000000E+000