cycle number,freq/Hz,Re(Z)/Ohm,-Im(Z)/Ohm,|Z|/Ohm,Phase(Z)/deg
2.0,10001.0,8.7581358,2.2529655,9.04327353536494,-14.426132637416583
2.0,6746.0,9.2540522,2.3299034,9.542847162857447,-14.131713841806864
2.0,4551.0005,9.9121552,2.2910848,10.17348958173537,-13.014725551211445
2.0,3070.0,10.5082,2.2035635,10.736757394042778,-11.843283854625842
2.0,2071.0005,11.059134,2.107775,11.258204132124316,-10.790663485598442
2.0,1397.0001,11.565837,2.0222011,11.741289656567128,-9.917495319177883
2.0,942.05835,12.049222,1.9509741,12.20614807153161,-9.197340196599608
2.0,635.3645,12.515532,1.8964159,12.658393836059803,-8.616199410464784
2.0,428.71338,12.95928,1.8534634,13.091152153020738,-8.139364287615784
2.0,289.13373,13.400919,1.8362503,13.526139331265632,-7.80231970565947
2.0,195.02592,13.844419,1.835961,13.965625307915218,-7.554133391918847
2.0,133.4655,14.281403,1.8522046,14.401011545327993,-7.389640016648468
2.0,88.668892,14.771077,1.8696545,14.888932926482651,-7.213872314778487
2.0,59.863087,15.276055,1.8732404,15.390480368046253,-6.991045747488527
2.0,40.354206,15.784246,1.8359277,15.890659278587005,-6.634485362049267
2.0,27.236528,16.254395,1.755492,16.348917669928152,-6.164112860582016
2.0,18.356367,16.693621,1.6443397,16.774410127948975,-5.625549111781711
2.0,12.393575,17.066483,1.5566993,17.137332193194762,-5.211745647972413
2.0,8.3562918,17.400503,1.4878488,17.46399721440285,-4.887249935043709
2.0,5.6368299,17.695515,1.4769708,17.757046315738368,-4.77118060231248
2.0,3.8021243,17.979294,1.5241981,18.043785428409404,-4.845674518683775
2.0,2.5634654,18.275663,1.6410055,18.349189549966486,-5.130933764836075
2.0,1.7299316,18.586203,1.8400476,18.677063932199697,-5.653900265983127
2.0,1.1664815,18.9212,2.15975,19.044062841276805,-6.511812227227605
2.0,0.78696758,19.335512,2.5626926,19.504599910386236,-7.549872749128378
2.0,0.53085387,19.82398,3.1541562,20.073337649090604,-9.040444602720175
2.0,0.35855919,20.512663,3.9059291,20.881226627901814,-10.78094258529625
2.0,0.24214387,21.206844,4.8186879,21.747413306366862,-12.801570135439857
2.0,0.16298145,22.321299,6.0289097,23.12116219436547,-15.114740236891851
2.0,0.1094304,23.589504,7.6750393,24.806671022581014,-18.022723942088465
2.0,0.074505806,25.082029,9.2916002,26.747747812357602,-20.327073601371755
2.0,0.048894435,27.116129,11.413571,29.420300048039653,-22.8269297187919
3.0,10001.0,8.3723974,2.1502283,8.644103190363223,-14.403608180894429
3.0,6746.0,9.207819,2.1518538,9.455919072905365,-13.153864750555043
3.0,4551.0005,9.7946157,2.0582707,10.008545098322982,-11.867630459023442
3.0,3070.0,10.306561,1.9414667,10.487825923132492,-10.667908400843864
3.0,2071.0005,10.759396,1.8367054,10.915039579003146,-9.687417167630661
3.0,1397.0001,11.180387,1.7602906,11.318112760801482,-8.94745648139846
3.0,942.05835,11.580247,1.7195208,11.707214543290887,-8.445988483802248
3.0,635.3645,11.98,1.7050089,12.100721273919138,-8.100011311714661
3.0,428.71338,12.388502,1.7162591,12.506819224020823,-7.887350704960598
3.0,289.13373,12.801636,1.7358885,12.918792248539654,-7.722148598550216
3.0,195.02592,13.228973,1.7657298,13.346292682289604,-7.602586976318218
3.0,133.4655,13.66321,1.8019754,13.781524692366412,-7.513106210435828
3.0,88.668892,14.147539,1.8394402,14.266618380187262,-7.40794811215461
3.0,59.863087,14.645962,1.8579658,14.763341079153244,-7.229842206941209
3.0,40.354206,15.155319,1.8373814,15.266291769805363,-6.912616985386012
3.0,27.236528,15.642763,1.7742261,15.743059185815515,-6.4709212161822744
3.0,18.356367,16.088234,1.6775244,16.175455522221046,-5.952734943422351
3.0,12.393575,16.476917,1.5779501,16.552302569219155,-5.4703800263918225
3.0,8.3562918,16.814287,1.5114052,16.88207904841569,-5.136407615778895
3.0,5.6368299,17.12154,1.4931607,17.186525560671782,-4.98412541718772
3.0,3.8021243,17.406357,1.5337862,17.473802222720717,-5.035693727888346
3.0,2.5634654,17.704121,1.6297888,17.77897949588914,-5.259655084581415
3.0,1.7299316,18.007595,1.8287818,18.10021879856805,-5.798856825656756
3.0,1.1664815,18.344088,2.1275318,18.467050552585683,-6.615559343562753
3.0,0.78696758,18.75585,2.5169675,18.9239804115983,-7.6432240379027565
3.0,0.53085387,19.228445,3.0870073,19.47466844873818,-9.120653110927194
3.0,0.35855919,19.899292,3.8393943,20.26629642268504,-10.920528610144276
3.0,0.24214387,20.594727,4.7154932,21.127675128224006,-12.896487002211012
3.0,0.16298145,21.701365,5.9001508,22.48913120433881,-15.209884546208755
3.0,0.1094304,22.912565,7.4751372,24.10110601275487,-18.068718453834627
3.0,0.074505806,24.382071,9.0239887,25.998418380870184,-20.30989394944942
3.0,0.048894435,26.376797,11.043871,28.595498013565877,-22.71888716767014
4.0,10001.0,8.3260279,1.9877437,8.560015514499264,-13.427373499808017
4.0,6746.0,9.0865431,2.1063745,9.327490500794298,-13.05135776209783
4.0,4551.0005,9.6567278,2.0201461,9.865768194552214,-11.815636371944914
4.0,3070.0,10.155643,1.9129741,10.334241851762508,-10.667560319805768
4.0,2071.0005,10.600436,1.8173803,10.755097142514526,-9.728432843420482
4.0,1397.0001,11.013407,1.7464366,11.151016749403105,-9.01057760971248
4.0,942.05835,11.418021,1.717604,11.54648721721273,-8.55481546803373
4.0,635.3645,11.817286,1.7124345,11.940715234967554,-8.245296772352544
4.0,428.71338,12.229675,1.7276269,12.351098951560084,-8.040692439322335
4.0,289.13373,12.65466,1.7542485,12.775672487793049,-7.892311966630113
4.0,195.02592,13.088707,1.781944,13.209450228945373,-7.752789980873334
4.0,133.4655,13.522866,1.8230631,13.645199299407013,-7.677945636503722
4.0,88.668892,14.008745,1.8609095,14.131805286028223,-7.5668204100066605
4.0,59.863087,14.513375,1.8866609,14.635489169898415,-7.406609900365951
4.0,40.354206,15.027311,1.8748611,15.143816561059309,-7.111678422740673
4.0,27.236528,15.530979,1.8136575,15.636516946741919,-6.660648483667182
4.0,18.356367,15.99733,1.7203327,16.08956530573742,-6.137927571047691
4.0,12.393575,16.397848,1.6256479,16.47823261535892,-5.661682248688067
4.0,8.3562918,16.755152,1.5500429,16.82669758256041,-5.28546984561496
4.0,5.6368299,17.063784,1.5112681,17.130576629779092,-5.061242221658117
4.0,3.8021243,17.363884,1.5413442,17.432160207740452,-5.072692921288059
4.0,2.5634654,17.657158,1.6488334,17.733975307807313,-5.33483527226757
4.0,1.7299316,17.965506,1.8309451,18.05856488747791,-5.819177671502018
4.0,1.1664815,18.319817,2.1199169,18.442064487914433,-6.6007460984998065
4.0,0.78696758,18.715324,2.5446107,18.887519584093894,-7.742686511810315
4.0,0.53085387,19.216595,3.062588,19.45911017111957,-9.055192267683013
4.0,0.35855919,19.792465,3.7366292,20.14209692545733,-10.691067115970096
4.0,0.24214387,20.581936,4.7391758,21.12050844017259,-12.966857215818335
4.0,0.16298145,21.494179,5.825233,22.269554786486637,-15.16373542193406
4.0,0.1094304,22.861187,7.1966271,23.967171561647056,-17.473831931937177
4.0,0.074505806,24.325157,9.0510359,25.954470018433007,-20.409499435582685
4.0,0.048894435,26.298845,11.445837,28.681639300510597,-23.519737094609482
5.0,10001.0,8.5680151,1.9850951,8.794969318301915,-13.04451569588369
5.0,6746.0,9.002141,2.0703626,9.237150203355998,-12.951979700497066
5.0,4551.0005,9.5610085,1.9838207,9.764651970593766,-11.722012145623948
5.0,3070.0,10.049634,1.8878393,10.22541347606934,-10.639112157309873
5.0,2071.0005,10.49685,1.8048925,10.650891833975981,-9.756382160778854
5.0,1397.0001,10.908452,1.7474099,11.047523088680196,-9.100814126100396
5.0,942.05835,11.308222,1.7227052,11.438688648940099,-8.661895056351648
5.0,635.3645,11.715914,1.7176793,11.841159699668124,-8.340756966453592
5.0,428.71338,12.131972,1.7369735,12.255685274536313,-8.14784927446714
5.0,289.13373,12.563004,1.7600141,12.685689541219855,-7.974949034116285
5.0,195.02592,12.999888,1.7930914,13.122967072323926,-7.853328007386855
5.0,133.4655,13.433656,1.8304079,13.557783985840695,-7.75907651724735
5.0,88.668892,13.921963,1.871471,14.047186817196174,-7.6561348774754086
5.0,59.863087,14.426009,1.9011889,14.550747571914105,-7.507686067074022
5.0,40.354206,14.941472,1.8917208,15.060750084638435,-7.215753715421512
5.0,27.236528,15.452219,1.8382359,15.561175509838895,-6.78417045914249
5.0,18.356367,15.930656,1.7417117,16.0255845520921,-6.239412990173476
5.0,12.393575,16.341282,1.6423494,16.423605236220347,-5.739131475637827
5.0,8.3562918,16.695503,1.5572548,16.76797134226833,-5.328783409076123
5.0,5.6368299,17.016003,1.5153407,17.083343218851674,-5.088985610292603
5.0,3.8021243,17.314613,1.5455589,17.38345695346982,-5.1008892107538575
5.0,2.5634654,17.59795,1.6476451,17.674913820951264,-5.3488449060189
5.0,1.7299316,17.901192,1.8197496,17.99344779711671,-5.804475771535335
5.0,1.1664815,18.256086,2.1142039,18.378099307876514,-6.605892508291498
5.0,0.78696758,18.643795,2.5109112,18.81211755907108,-7.670334546206599
5.0,0.53085387,19.141188,3.0284128,19.379276615460853,-8.99049915378842
5.0,0.35855919,19.736074,3.689441,20.077962840536312,-10.588598208330575
5.0,0.24214387,20.488478,4.6723332,21.014481394702706,-12.846435362022628
5.0,0.16298145,21.407988,5.7129846,22.157169116292387,-14.941880679438952
5.0,0.1094304,22.768005,7.1105094,23.852492440152105,-17.343725254678382
5.0,0.074505806,24.167713,8.9146585,25.75945433859171,-20.24732569743784
5.0,0.048894435,26.054005,11.259361,28.38281851170433,-23.371814226784924
6.0,10001.0,8.221612,1.9613227,8.452318653013462,-13.417530191126414
6.0,6746.0,8.9837828,2.0449646,9.213589616041569,-12.823645213647538
6.0,4551.0005,9.5288849,1.9611318,9.728601408960039,-11.62961084146827
6.0,3070.0,10.009823,1.8709939,10.183180969872147,-10.587315492884278
6.0,2071.0005,10.445031,1.7885464,10.597054818010236,-9.71675879863734
6.0,1397.0001,10.858399,1.7375021,10.996533198727017,-9.091091154381262
6.0,942.05835,11.260211,1.7184017,11.390577516837498,-8.676865667381373
6.0,635.3645,11.671275,1.7223315,11.797672902802368,-8.394559236355338
6.0,428.71338,12.09029,1.7441381,12.215446369084168,-8.208823949561694
6.0,289.13373,12.520885,1.7656522,12.644765275583008,-8.026727661731424
6.0,195.02592,12.960657,1.7962832,13.084542911628638,-7.890646210757388
6.0,133.4655,13.389277,1.8399526,13.515108736261642,-7.824570100721631
6.0,88.668892,13.884824,1.8830284,14.01192825653138,-7.723205098335129
6.0,59.863087,14.388811,1.9221879,14.516634882665729,-7.609039655130844
6.0,40.354206,14.91258,1.9197936,15.035645969595086,-7.3357114849744685
6.0,27.236528,15.438296,1.8717434,15.551347425193084,-6.912817389116671
6.0,18.356367,15.92972,1.7816261,16.029041482215998,-6.38160557264782
6.0,12.393575,16.352112,1.6791699,16.43810142363193,-5.863053041773772
6.0,8.3562918,16.714855,1.592889,16.790582867707304,-5.443722403471309
6.0,5.6368299,17.057253,1.5506768,17.127594064668486,-5.19448699687637
6.0,3.8021243,17.353998,1.5699553,17.424867466583557,-5.169276647628939
6.0,2.5634654,17.648088,1.6560166,17.725614263974595,-5.360679305649466
6.0,1.7299316,17.957457,1.8319314,18.0506574550944,-5.824882599172609
6.0,1.1664815,18.312551,2.0916524,18.43161777734192,-6.516062955821752
6.0,0.78696758,18.729218,2.5170217,18.89759257497618,-7.654126431892748
6.0,0.53085387,19.196062,3.0081682,19.430333816672714,-8.90624930118416
6.0,0.35855919,19.752213,3.7198083,20.09942517053953,-10.66523586462313
6.0,0.24214387,20.580915,4.6157188,21.092153097251558,-12.64066481542046
6.0,0.16298145,21.454252,5.7972655,22.223708424945517,-15.121068022240195
6.0,0.1094304,22.675821,7.0890951,23.758117083659744,-17.36070239586403
6.0,0.074505806,24.316475,8.8342876,25.871520902821675,-19.966316850345397
6.0,0.048894435,26.490416,11.109512,28.725657463863207,-22.75213124583994
7.0,10001.0,8.2461529,1.9074967,8.463898706310781,-13.024552010097153
7.0,6746.0,8.9778166,2.0119383,9.200493825129305,-12.63135092533795
7.0,4551.0005,9.5062485,1.9305077,9.700289713380293,-11.479392210299583
7.0,3070.0,9.9750891,1.8375359,10.142925649768296,-10.437583607759622
7.0,2071.0005,10.408871,1.7692847,10.5581704780845,-9.64685030421764
7.0,1397.0001,10.812003,1.7266653,10.94900826240592,-9.073456616168642
7.0,942.05835,11.21518,1.7137989,11.345367737629363,-8.688194825067379
7.0,635.3645,11.623468,1.7231842,11.750505186337891,-8.432703737694565
7.0,428.71338,12.04262,1.7415408,12.167894675023476,-8.228768868782936
7.0,289.13373,12.47805,1.7712207,12.603132728437341,-8.078986671407348
7.0,195.02592,12.912159,1.7996583,13.036971275493396,-7.934599682581094
7.0,133.4655,13.351761,1.841439,13.478145992377513,-7.852541791407012
7.0,88.668892,13.840737,1.8889596,13.969043241167276,-7.77161305936006
7.0,59.863087,14.342795,1.9288638,14.471913625052336,-7.659360727249397
7.0,40.354206,14.875399,1.9296985,15.000041056947252,-7.3913692395032164
7.0,27.236528,15.403966,1.8895164,15.519421405291661,-6.993210673339159
7.0,18.356367,15.897344,1.798189,15.998719634210014,-6.45344183834105
7.0,12.393575,16.321749,1.6912589,16.409139132990195,-5.915873292389634
7.0,8.3562918,16.707739,1.6008365,16.784255121745893,-5.4730346231974965
7.0,5.6368299,17.033098,1.5544146,17.103877695607423,-5.214282604925673
7.0,3.8021243,17.338343,1.5704494,17.40932075939809,-5.175538235372423
7.0,2.5634654,17.631466,1.6524254,17.708729570799854,-5.354135335143527
7.0,1.7299316,17.953699,1.8177538,18.04548521542204,-5.781311020082478
7.0,1.1664815,18.285217,2.0864186,18.403866531561103,-6.509531115853132
7.0,0.78696758,18.697203,2.4637008,18.858823443023418,-7.506528314624694
7.0,0.53085387,19.133791,2.9835446,19.36500700779295,-8.862797328786808
7.0,0.35855919,19.753683,3.727355,20.10226771686503,-10.685598595198686
7.0,0.24214387,20.494844,4.538269,20.991296198679514,-12.48580053364177
7.0,0.16298145,21.516079,5.7510633,22.271425293744628,-14.9648312046794
7.0,0.1094304,22.616011,7.1674066,23.724579467755472,-17.584312651986735
7.0,0.074505806,24.158216,8.6497593,25.660041626049487,-19.699717619131725
7.0,0.048894435,26.215843,10.598459,28.277159641225108,-22.01234460736229
8.0,10001.0,8.1827354,2.0756092,8.441878474459212,-14.233285628847572
8.0,6746.0,8.9558659,1.9939631,9.175152470828177,-12.551793625513382
8.0,4551.0005,9.4820442,1.9168627,9.673857804485495,-11.42872301317987
8.0,3070.0,9.9472885,1.8280724,10.113871523895982,-10.413391325998015
8.0,2071.0005,10.373191,1.7681065,10.522798682756564,-9.67308138488377
8.0,1397.0001,10.779439,1.7287109,10.917176673961992,-9.111009576791224
8.0,942.05835,11.186512,1.717201,11.317545228561935,-8.727143993223235
8.0,635.3645,11.596803,1.731982,11.72542542806584,-8.494336844539735
8.0,428.71338,12.019403,1.7507789,12.14624531421518,-8.287572723336476
8.0,289.13373,12.455925,1.777923,12.582173015801127,-8.123363598499113
8.0,195.02592,12.900417,1.807408,13.026414796572118,-7.975489270620286
8.0,133.4655,13.336279,1.8493154,13.46388892610594,-7.894746955129172
8.0,88.668892,13.824966,1.8991405,13.954799157992072,-7.821786154789968
8.0,59.863087,14.339809,1.9349468,14.46976645545156,-7.684808507681935
8.0,40.354206,14.870709,1.9402766,14.996754963897642,-7.433752661915863
8.0,27.236528,15.396714,1.9020641,15.513756793191801,-7.0424683016191
8.0,18.356367,15.894869,1.8131232,15.997946001457164,-6.507585248965341
8.0,12.393575,16.329756,1.7064996,16.418680577450072,-5.965895159948794
8.0,8.3562918,16.706636,1.6094087,16.783976966146362,-5.5025234281778825
8.0,5.6368299,17.038519,1.5682012,17.110534320033448,-5.258607205746798
8.0,3.8021243,17.346252,1.5726575,17.417396764723776,-5.180425379129293
8.0,2.5634654,17.651434,1.6488036,17.728273338589094,-5.336459371481644
8.0,1.7299316,17.957342,1.8193012,18.049265596175527,-5.785033217955794
8.0,1.1664815,18.299381,2.0757034,18.416728525662002,-6.471414654284112
8.0,0.78696758,18.713938,2.4879034,18.87858942812136,-7.572717598982402
8.0,0.53085387,19.166595,2.9687197,19.395145283064863,-8.804595147090847
8.0,0.35855919,19.719112,3.6672218,20.057215504624246,-10.535110949453827
8.0,0.24214387,20.551685,4.5598612,21.051462906470192,-12.5097314825153
8.0,0.16298145,21.403524,5.7154241,22.153485329885157,-14.950953478207081
8.0,0.1094304,22.623106,6.9747682,23.673874134390577,-17.134679887125028
8.0,0.074505806,24.205622,8.697341,25.72072854483646,-19.76391009965513
8.0,0.048894435,26.307251,10.968098,28.5021162181794,-22.6323780048992
9.0,10001.0,8.2175474,2.0927768,8.479846697073304,-14.287888930980065
9.0,6746.0,8.9541454,1.9700462,9.168304198404172,-12.408237673674455
9.0,4551.0005,9.4655714,1.8883529,9.65209400096354,-11.282217321031526
9.0,3070.0,9.9287319,1.8106173,10.092475025935755,-10.334970888500218
9.0,2071.0005,10.346795,1.7552755,10.494625236421035,-9.628240280176179
9.0,1397.0001,10.752097,1.7248516,10.889568537799445,-9.113739977647658
9.0,942.05835,11.164691,1.7209384,11.296546113838316,-8.762673216685195
9.0,635.3645,11.578837,1.7375638,11.708483857085827,-8.534338287066417
9.0,428.71338,12.00874,1.7572304,12.136626181368698,-8.324967477358777
9.0,289.13373,12.444223,1.7849668,12.571586715718555,-8.162680196873202
9.0,195.02592,12.883773,1.8134696,13.010775484407267,-8.012094361154459
9.0,133.4655,13.326992,1.8510429,13.454927557802177,-7.907465498580841
9.0,88.668892,13.813811,1.903756,13.944377406369098,-7.846811980455398
9.0,59.863087,14.323193,1.9385742,14.453785927713009,-7.70786657463498
9.0,40.354206,14.856339,1.9496158,14.98371817175332,-7.476273680352277
9.0,27.236528,15.390894,1.9107985,15.50905442078395,-7.0771288770134735
9.0,18.356367,15.89031,1.8158089,15.99372107601665,-6.518995485827303
9.0,12.393575,16.329386,1.7047139,16.41812707399505,-5.95983140220772
9.0,8.3562918,16.708927,1.6208231,16.787355628949502,-5.540551838444652
9.0,5.6368299,17.048096,1.5651031,17.119787526101067,-5.245344660177197
9.0,3.8021243,17.35253,1.5698777,17.42339844559199,-5.169457446923218
9.0,2.5634654,17.641785,1.6478075,17.71857351886097,-5.3361541620166815
9.0,1.7299316,17.954441,1.8019338,18.0446367944069,-5.731097129840574
9.0,1.1664815,18.291389,2.0721672,18.408389078191412,-6.46328201971385
9.0,0.78696758,18.683928,2.435009,18.84193287163674,-7.425301679349558
9.0,0.53085387,19.139275,2.9688175,19.36816266128337,-8.817251662775025
9.0,0.35855919,19.783333,3.6530025,20.117770548793303,-10.461855206573444
9.0,0.24214387,20.438848,4.520061,20.93268876687429,-12.470277725666094
9.0,0.16298145,21.482925,5.5905728,22.198436223926336,-14.586737025432848
9.0,0.1094304,22.700825,7.0839496,23.78044990356501,-17.33089386005112
9.0,0.074505806,24.024565,8.5851097,25.512425051340358,-19.664204115597272
9.0,0.048894435,25.786022,10.546861,27.859562228035905,-22.245281082511326
10.0,10001.0,8.6745605,2.0107222,8.904549603081174,-13.050420203579272
10.0,6746.0,9.0422888,1.9672004,9.253802686267175,-12.273761074356809
10.0,4551.0005,9.5572538,1.8897783,9.742297584285,-11.18494884633741
10.0,3070.0,10.010192,1.8079042,10.172141439895615,-10.23762094285941
10.0,2071.0005,10.427921,1.7493421,10.573633914840887,-9.523016265224664
10.0,1397.0001,10.832138,1.7232623,10.968356604598764,-9.039315750185025
10.0,942.05835,11.238397,1.7233447,11.36976183060257,-8.718073757216393
10.0,635.3645,11.647882,1.7415451,11.777356852080946,-8.503644553711581
10.0,428.71338,12.079944,1.7591474,12.207360346039708,-8.28548237595809
10.0,289.13373,12.521009,1.7916862,12.648549553895554,-8.143423552704661
10.0,195.02592,12.967113,1.824703,13.09486771956777,-8.009940072124637
10.0,133.4655,13.406452,1.8672053,13.535856487886242,-7.928956392861872
10.0,88.668892,13.904403,1.918005,14.036066613066284,-7.85394538266384
10.0,59.863087,14.410984,1.9511147,14.542465692612517,-7.710437230060906
10.0,40.354206,14.949007,1.9670907,15.077873063137105,-7.496295028652441
10.0,27.236528,15.488213,1.9232353,15.607164250834778,-7.07842046853373
10.0,18.356367,15.997694,1.8297703,16.101995921884903,-6.524971810608259
10.0,12.393575,16.438177,1.7219816,16.528124022830525,-5.980209475526741
10.0,8.3562918,16.82703,1.6272088,16.90552415927106,-5.523446653575742
10.0,5.6368299,17.154978,1.5756396,17.227185212029624,-5.2477431240743035
10.0,3.8021243,17.471455,1.5725545,17.54208275754322,-5.143166471222436
10.0,2.5634654,17.768827,1.6520519,17.845461283929385,-5.311789209126127
