cycle number,freq/Hz,Re(Z)/Ohm,-Im(Z)/Ohm
2.0,10001.0,8.2673588,2.6834426
2.0,6746.0,9.2966089,2.7759545
2.0,4551.0005,10.113347,2.7630074
2.0,3070.0,10.870985,2.663825
2.0,2071.0005,11.548008,2.5335505
2.0,1397.0001,12.170387,2.4008534
2.0,942.05835,12.740558,2.2763391
2.0,635.3645,13.272159,2.1781816
2.0,428.71338,13.786943,2.1010711
2.0,289.13373,14.281002,2.0492742
2.0,195.02592,14.774909,2.0190337
2.0,133.4655,15.243658,2.0040784
2.0,88.668892,15.775969,1.9951912
2.0,59.863087,16.306479,1.9661731
2.0,40.354206,16.819847,1.9022318
2.0,27.236528,17.3127,1.796801
2.0,18.356367,17.747757,1.6792719
2.0,12.393575,18.122505,1.567902
2.0,8.3562918,18.446238,1.4924878
2.0,5.6368299,18.748678,1.4756155
2.0,3.8021243,19.029539,1.5183783
2.0,2.5634654,19.317415,1.6491431
2.0,1.7299316,19.636572,1.84769
2.0,1.1664815,19.982805,2.1457913
2.0,0.78696758,20.412113,2.5686429
2.0,0.53085387,20.866186,3.1428816
2.0,0.35855919,21.528215,3.9450834
2.0,0.24214387,22.306215,4.8095531
2.0,0.16298145,23.381666,6.1376686
2.0,0.1094304,24.566885,7.6743178
2.0,0.074505806,26.258093,9.3133373
2.0,0.048894435,28.593891,11.479402
3.0,10001.0,8.4918919,2.7720804
3.0,6746.0,9.3148689,2.5711715
3.0,4551.0005,10.038186,2.4779239
3.0,3070.0,10.682055,2.3361015
3.0,2071.0005,11.241233,2.1927893
3.0,1397.0001,11.749439,2.0800939
3.0,942.05835,12.229115,2.0008543
3.0,635.3645,12.684567,1.9612759
3.0,428.71338,13.143833,1.9328473
3.0,289.13373,13.613194,1.9295313
3.0,195.02592,14.087404,1.9287522
3.0,133.4655,14.552521,1.9452522
3.0,88.668892,15.063948,1.9632967
3.0,59.863087,15.591496,1.9689282
3.0,40.354206,16.114225,1.9351345
3.0,27.236528,16.634619,1.8589404
3.0,18.356367,17.093679,1.7503639
3.0,12.393575,17.500282,1.6399268
3.0,8.3562918,17.856773,1.5671272
3.0,5.6368299,18.167419,1.5346514
3.0,3.8021243,18.465626,1.5720756
3.0,2.5634654,18.7619,1.6791177
3.0,1.7299316,19.089645,1.8711088
3.0,1.1664815,19.441669,2.160661
3.0,0.78696758,19.88184,2.5881994
3.0,0.53085387,20.345219,3.1332653
3.0,0.35855919,20.960632,3.9192111
3.0,0.24214387,21.805027,4.8060136
3.0,0.16298145,22.784534,6.0940681
3.0,0.1094304,23.989059,7.5040584
3.0,0.074505806,25.743536,9.2166977
3.0,0.048894435,28.121632,11.461254
4.0,10001.0,8.5029469,2.2898023
4.0,6746.0,9.2336178,2.5082378
4.0,4551.0005,9.9344788,2.4171977
4.0,3070.0,10.553416,2.2799103
4.0,2071.0005,11.096982,2.1493995
4.0,1397.0001,11.589659,2.0451527
4.0,942.05835,12.053589,1.978958
4.0,635.3645,12.510799,1.9469646
4.0,428.71338,12.975974,1.9315407
4.0,289.13373,13.446062,1.9338948
4.0,195.02592,13.918337,1.9424591
4.0,133.4655,14.388526,1.956261
4.0,88.668892,14.908189,1.9819025
4.0,59.863087,15.429999,1.9955245
4.0,40.354206,15.97773,1.9720507
4.0,27.236528,16.491262,1.8982269
4.0,18.356367,16.976448,1.7927526
4.0,12.393575,17.399054,1.6852361
4.0,8.3562918,17.762005,1.6000189
4.0,5.6368299,18.098864,1.5663519
4.0,3.8021243,18.400402,1.5901688
4.0,2.5634654,18.692616,1.6893744
4.0,1.7299316,19.014872,1.8803695
4.0,1.1664815,19.377621,2.154144
4.0,0.78696758,19.810678,2.5769699
4.0,0.53085387,20.284695,3.1056273
4.0,0.35855919,20.868031,3.8488595
4.0,0.24214387,21.731304,4.762785
4.0,0.16298145,22.637724,5.9925923
4.0,0.1094304,23.890047,7.3220363
4.0,0.074505806,25.600418,9.1262913
4.0,0.048894435,27.891466,11.483993
5.0,10001.0,8.2818518,2.3519771
5.0,6746.0,9.1961851,2.4845951
5.0,4551.0005,9.886097,2.4000881
5.0,3070.0,10.500829,2.2655613
5.0,2071.0005,11.041083,2.1404009
5.0,1397.0001,11.535726,2.0503955
5.0,942.05835,12.003351,1.9854615
5.0,635.3645,12.466245,1.9553288
5.0,428.71338,12.931163,1.950004
5.0,289.13373,13.410175,1.9519403
5.0,195.02592,13.889038,1.9576883
5.0,133.4655,14.351961,1.9776598
5.0,88.668892,14.879552,2.0096405
5.0,59.863087,15.409082,2.0247731
5.0,40.354206,15.955969,2.0073822
5.0,27.236528,16.495827,1.9494267
5.0,18.356367,16.997122,1.8478082
5.0,12.393575,17.430939,1.728439
5.0,8.3562918,17.805809,1.6474252
5.0,5.6368299,18.143045,1.5939828
5.0,3.8021243,18.461918,1.6117016
5.0,2.5634654,18.764568,1.7074726
5.0,1.7299316,19.096741,1.8754215
5.0,1.1664815,19.43479,2.1578829
5.0,0.78696758,19.856997,2.5352473
5.0,0.53085387,20.31921,3.0938904
5.0,0.35855919,20.982986,3.8374972
5.0,0.24214387,21.700048,4.7000475
5.0,0.16298145,22.792507,5.8955417
5.0,0.1094304,23.96468,7.4421644
5.0,0.074505806,25.459242,8.9594841
5.0,0.048894435,27.496504,10.940364
6.0,10001.0,8.2089291,2.5008912
6.0,6746.0,9.1478558,2.443181
6.0,4551.0005,9.8215237,2.3512197
6.0,3070.0,10.416291,2.2260497
6.0,2071.0005,10.943567,2.1089926
6.0,1397.0001,11.429502,2.0247555
6.0,942.05835,11.899595,1.973688
6.0,635.3645,12.360188,1.9483801
6.0,428.71338,12.833718,1.9459624
6.0,289.13373,13.305238,1.9522699
6.0,195.02592,13.787818,1.9632615
6.0,133.4655,14.256915,1.9837697
6.0,88.668892,14.781456,2.0106046
6.0,59.863087,15.309305,2.0313623
6.0,40.354206,15.862717,2.0221519
6.0,27.236528,16.402498,1.9601473
6.0,18.356367,16.908447,1.8534219
6.0,12.393575,17.348419,1.7437912
6.0,8.3562918,17.736294,1.6470535
6.0,5.6368299,18.074139,1.6054544
6.0,3.8021243,18.385878,1.6076446
6.0,2.5634654,18.696594,1.6938682
6.0,1.7299316,19.010353,1.8577739
6.0,1.1664815,19.369717,2.1406403
6.0,0.78696758,19.798317,2.5460315
6.0,0.53085387,20.268326,3.0602436
6.0,0.35855919,20.837282,3.7740533
6.0,0.24214387,21.67741,4.6848693
6.0,0.16298145,22.566145,5.8755589
6.0,0.1094304,23.824919,7.1746583
6.0,0.074505806,25.473331,8.9666948
6.0,0.048894435,27.687159,11.290839
7.0,10001.0,8.495616,2.6370559
7.0,6746.0,9.1540842,2.43943
7.0,4551.0005,9.8259382,2.3555872
7.0,3070.0,10.424418,2.2239463
7.0,2071.0005,10.950521,2.1179268
7.0,1397.0001,11.440632,2.0311778
7.0,942.05835,11.908214,1.9864092
7.0,635.3645,12.376987,1.9700869
7.0,428.71338,12.850752,1.9634844
7.0,289.13373,13.331357,1.965646
7.0,195.02592,13.815401,1.9772874
7.0,133.4655,14.282757,2.0015404
7.0,88.668892,14.819844,2.0244205
7.0,59.863087,15.351803,2.0580833
7.0,40.354206,15.906993,2.0454459
7.0,27.236528,16.453154,1.9918144
7.0,18.356367,16.975807,1.8942189
7.0,12.393575,17.429981,1.7793844
7.0,8.3562918,17.833733,1.677985
7.0,5.6368299,18.175547,1.6197053
7.0,3.8021243,18.488598,1.62685
7.0,2.5634654,18.800831,1.7115822
7.0,1.7299316,19.123636,1.8802991
7.0,1.1664815,19.484121,2.1504216
7.0,0.78696758,19.902287,2.5524635
7.0,0.53085387,20.375513,3.0602193
7.0,0.35855919,20.94413,3.7553024
7.0,0.24214387,21.78182,4.6750259
7.0,0.16298145,22.661591,5.8468285
7.0,0.1094304,23.936789,7.1538587
7.0,0.074505806,25.571001,8.9403172
7.0,0.048894435,27.755068,11.267194
8.0,10001.0,8.361062,2.6260948
8.0,6746.0,9.1646175,2.4236028
8.0,4551.0005,9.8253622,2.3336036
8.0,3070.0,10.415274,2.2114208
8.0,2071.0005,10.940588,2.1017551
8.0,1397.0001,11.425906,2.025085
8.0,942.05835,11.886369,1.9811149
8.0,635.3645,12.357609,1.962863
8.0,428.71338,12.833409,1.9617867
8.0,289.13373,13.315409,1.9696387
8.0,195.02592,13.796616,1.9836043
8.0,133.4655,14.270758,2.0044937
8.0,88.668892,14.803349,2.0407188
8.0,59.863087,15.335443,2.0666919
8.0,40.354206,15.897675,2.0653157
8.0,27.236528,16.452705,2.0132961
8.0,18.356367,16.97986,1.9213064
8.0,12.393575,17.437506,1.8016517
8.0,8.3562918,17.841415,1.6933345
8.0,5.6368299,18.200527,1.6376706
8.0,3.8021243,18.517282,1.6457034
8.0,2.5634654,18.830788,1.7185912
8.0,1.7299316,19.149172,1.8837442
8.0,1.1664815,19.491962,2.1531966
8.0,0.78696758,19.912022,2.5113266
8.0,0.53085387,20.36775,3.058043
8.0,0.35855919,21.033712,3.7916563
8.0,0.24214387,21.729673,4.6208448
8.0,0.16298145,22.802185,5.7997851
8.0,0.1094304,23.957272,7.3009067
8.0,0.074505806,25.455645,8.7804499
8.0,0.048894435,27.48695,10.739407
9.0,10001.0,8.6299791,2.425071
9.0,6746.0,9.1324768,2.4058895
9.0,4551.0005,9.7860746,2.3146002
9.0,3070.0,10.363085,2.1917179
9.0,2071.0005,10.886359,2.0830948
9.0,1397.0001,11.356033,2.0102198
9.0,942.05835,11.826792,1.9717007
9.0,635.3645,12.289278,1.9628773
9.0,428.71338,12.770835,1.9661454
9.0,289.13373,13.250818,1.9723768
9.0,195.02592,13.738262,1.979974
9.0,133.4655,14.21184,2.0048673
9.0,88.668892,14.740412,2.037271
9.0,59.863087,15.272414,2.063839
9.0,40.354206,15.842842,2.0567527
9.0,27.236528,16.386877,2.0168576
9.0,18.356367,16.916653,1.9199154
9.0,12.393575,17.385349,1.7957689
9.0,8.3562918,17.791443,1.6954811
9.0,5.6368299,18.138582,1.6345872
9.0,3.8021243,18.467211,1.6255214
9.0,2.5634654,18.768089,1.7122165
9.0,1.7299316,19.090292,1.8798897
9.0,1.1664815,19.448008,2.1220622
9.0,0.78696758,19.849901,2.502862
9.0,0.53085387,20.309256,3.0493984
9.0,0.35855919,20.964853,3.6973464
9.0,0.24214387,21.674578,4.6851077
9.0,0.16298145,22.61062,5.7097039
9.0,0.1094304,23.957493,7.0837135
9.0,0.074505806,25.398865,8.8798618
9.0,0.048894435,27.333015,11.230246
10.0,10001.0,8.388278,2.2203505
10.0,6746.0,9.1616096,2.4047458
10.0,4551.0005,9.8105993,2.307646
10.0,3070.0,10.39583,2.1903446
10.0,2071.0005,10.911079,2.0818303
10.0,1397.0001,11.390013,2.0092769
10.0,942.05835,11.85247,1.9771892
10.0,635.3645,12.325349,1.9709165
10.0,428.71338,12.803294,1.9692729
10.0,289.13373,13.28719,1.9799845
10.0,195.02592,13.779067,1.9920576
10.0,133.4655,14.255159,2.0116816
10.0,88.668892,14.786076,2.0433266
10.0,59.863087,15.319777,2.0696476
10.0,40.354206,15.88553,2.0739183
10.0,27.236528,16.443459,2.0205817
10.0,18.356367,16.974255,1.9157574
10.0,12.393575,17.438847,1.7979283
10.0,8.3562918,17.834768,1.6915356
10.0,5.6368299,18.190428,1.6242731
10.0,3.8021243,18.511522,1.631544
10.0,2.5634654,18.804884,1.7026392
10.0,1.7299316,19.138401,1.8560131
10.0,1.1664815,19.480099,2.1152632
10.0,0.78696758,19.909357,2.499871
10.0,0.53085387,20.349251,3.0084963
10.0,0.35855919,20.952272,3.7404118
10.0,0.24214387,21.739937,4.5493584
10.0,0.16298145,22.691217,5.771275
10.0,0.1094304,23.823261,7.1145673
10.0,0.074505806,25.469824,8.6792812
10.0,0.048894435,27.675428,10.737122
11.0,10001.0,8.6455193,2.4892235
11.0,6746.0,9.1678143,2.3973391
11.0,4551.0005,9.8169975,2.3004391
11.0,3070.0,10.386979,2.1813955
11.0,2071.0005,10.899074,2.0732346
11.0,1397.0001,11.375922,2.0055685
11.0,942.05835,11.844678,1.9749283
11.0,635.3645,12.311882,1.9691646
11.0,428.71338,12.793847,1.9706067
11.0,289.13373,13.284682,1.9807481
11.0,195.02592,13.773875,1.9918916
11.0,133.4655,14.254944,2.0094922
11.0,88.668892,14.782596,2.0462549
11.0,59.863087,15.317965,2.0750334
11.0,40.354206,15.879219,2.0675933
11.0,27.236528,16.439537,2.0170398
11.0,18.356367,16.974167,1.9242152
11.0,12.393575,17.442974,1.8047668
11.0,8.3562918,17.838133,1.6947047
11.0,5.6368299,18.194355,1.6278595
11.0,3.8021243,18.499165,1.6176319
11.0,2.5634654,18.812248,1.7011302
11.0,1.7299316,19.133354,1.8531348
11.0,1.1664815,19.472347,2.1183062
11.0,0.78696758,19.861893,2.4835632
11.0,0.53085387,20.338921,3.0172963
11.0,0.35855919,20.992517,3.6910908
11.0,0.24214387,21.650751,4.5572715
11.0,0.16298145,22.71911,5.6465254
11.0,0.1094304,23.936443,7.1548543
11.0,0.074505806,25.311657,8.6294193
11.0,0.048894435,27.18001,10.587086
