cycle number,freq/Hz,Re(Z)/Ohm,-Im(Z)/Ohm,|Z|/Ohm,Phase(Z)/deg
3.0,9997.999,9.3728018,2.4479764,9.687208165257944,-14.637457499420986
3.0,6812.999,10.17252,2.5721314,10.492665204287515,-14.189879057386127
3.0,4642.0,10.878054,2.7343228,11.216442395051821,-14.109633602237826
3.0,3162.0007,11.604026,2.8753011,11.954947754981498,-13.916724960270773
3.0,2154.0,12.351643,2.9863031,12.707521040884355,-13.591788169173082
3.0,1467.9995,13.123142,3.0756805,13.4787486989796,-13.190379334634974
3.0,998.00061,13.933693,3.1660051,14.288855409425732,-12.801359644940861
3.0,680.99933,14.744027,3.2187555,15.091279572836402,-12.314977834211344
3.0,463.99887,15.580209,3.2342978,15.912372379465165,-11.727472446411529
3.0,316.00006,16.410919,3.2103753,16.721984690562632,-11.068666943113513
3.0,215.00046,17.237328,3.1601408,17.524610308232496,-10.388742044897592
3.0,146.99995,18.040098,3.0579534,18.297437384677004,-9.62068385499566
3.0,102.00077,18.781456,2.9497652,19.011685990860123,-8.925807390139651
3.0,68.000511,19.556248,2.7914522,19.754468892440233,-8.12350562681932
3.0,46.000347,20.257154,2.6024883,20.42364398268225,-7.3208335884427305
3.0,32.00024,20.820253,2.4172256,20.960102924015054,-6.6223756611943205
3.0,22.000166,21.352535,2.2388744,21.4695903432087,-5.9857543516627
3.0,14.99895,21.807594,2.0978196,21.908263352967534,-5.494760059824816
3.0,10.000075,22.246698,2.0079665,22.337132792019798,-5.157489149702546
3.0,6.998889,22.607067,2.0029943,22.69562655024799,-5.063205614198874
3.0,4.9988737,22.944805,2.0632153,23.037381228390068,-5.138263355971691
3.0,2.9988587,23.474449,2.282491,23.585154674470168,-5.553582530461289
3.0,2.000015,23.927015,2.5938039,24.06719479876872,-6.186978852148663
3.0,0.99884343,24.97571,3.3512425,25.19954198587558,-7.6423050579879
3.0,0.99884343,24.882645,3.3998206,25.113836869507004,-7.780385313406551
3.0,0.0,0.0,0.0,0.0,
4.0,9997.999,9.1156664,2.2792115,9.39628538188476,-14.037987991076927
4.0,6812.999,9.9503651,2.4568675,10.249193311468677,-13.869617123441442
4.0,4642.0,10.631605,2.5478361,10.932634342576735,-13.476627529454035
4.0,3162.0007,11.315585,2.5831814,11.606691606031882,-12.859419084040944
4.0,2154.0,11.958058,2.5859106,12.234462994449588,-12.202228937797862
4.0,1467.9995,12.592685,2.6036212,12.859026357478019,-11.68168150329077
4.0,998.00061,13.213017,2.6311157,13.472438089264895,-11.2620261439595
4.0,680.99933,13.863305,2.6790621,14.119794589818984,-10.937496702530442
4.0,463.99887,14.527842,2.7252481,14.781243871322792,-10.624523225928003
4.0,316.00006,15.210469,2.7653711,15.459807389507677,-10.304231266227493
4.0,215.00046,15.922737,2.7907865,16.165458325075452,-9.941284268615368
4.0,146.99995,16.634426,2.7788215,16.864933361218426,-9.483826825435665
4.0,102.00077,17.327141,2.7516108,17.544263370930047,-9.023421787497965
4.0,68.000511,18.090933,2.655205,18.284746932963387,-8.34968355265971
4.0,46.000347,18.770329,2.5228674,18.93911588977225,-7.655088253135803
4.0,32.00024,19.367498,2.3646615,19.511319862827996,-6.961036237566074
4.0,22.000166,19.893244,2.1908517,20.013520130524988,-6.284682654218805
4.0,14.99895,20.368887,2.0548317,20.472271269551257,-5.760561029720565
4.0,10.000075,20.798393,1.9383909,20.888525813557354,-5.324532538776702
4.0,6.998889,21.155729,1.9024454,21.241096205738117,-5.138546120196605
4.0,4.9988737,21.467768,1.9448712,21.555685720626318,-5.176576540529145
4.0,2.9988587,21.95554,2.1311548,22.058729733898165,-5.54415128954024
4.0,2.000015,22.400692,2.355485,22.524193918186928,-6.002725610890692
4.0,0.99884343,23.271355,3.0302064,23.467810173994206,-7.418848707778878
4.0,0.99884343,23.245617,3.0685921,23.447280592573446,-7.519983753987478
4.0,0.0,0.0,0.0,0.0,
5.0,9997.999,9.1719656,2.0879993,9.406630323574104,-12.824826733293394
5.0,6812.999,9.6697645,2.3183622,9.943799514061467,-13.4823913089412
5.0,4642.0,10.298912,2.3814769,10.570667935801294,-13.019993654096194
5.0,3162.0007,10.925303,2.4081941,11.187566512208265,-12.430563906799707
5.0,2154.0,11.525702,2.4167967,11.776362463933202,-11.842634425389752
5.0,1467.9995,12.1162,2.4287586,12.357231517499134,-11.335023227868044
5.0,998.00061,12.710321,2.4688766,12.94788058290115,-10.992356961963269
5.0,680.99933,13.287789,2.5059063,13.522015489301166,-10.679817212473504
5.0,463.99887,13.911537,2.5606599,14.145240924983815,-10.429541581738818
5.0,316.00006,14.550816,2.6152101,14.78396327555632,-10.188957906694153
5.0,215.00046,15.216231,2.6559875,15.446292611676023,-9.901206100148597
5.0,146.99995,15.895864,2.6836555,16.120809506633847,-9.582728146624179
5.0,102.00077,16.565777,2.6666067,16.77902735280606,-9.14450412685351
5.0,68.000511,17.31422,2.613019,17.51028504915785,-8.582171439814795
5.0,46.000347,18.003344,2.5084801,18.177262378984135,-7.932188292014783
5.0,32.00024,18.587887,2.3649347,18.737728231032516,-7.250778969271
5.0,22.000166,19.132065,2.2065527,19.258888492903797,-6.579009148349116
5.0,14.99895,19.623293,2.0610883,19.731236989713693,-5.995948548244726
5.0,10.000075,20.070993,1.9410769,20.16463586424914,-5.523927818263016
5.0,6.998889,20.422531,1.8892304,20.509728519662204,-5.285228008757588
5.0,4.9988737,20.737326,1.9187847,20.82590752777007,-5.2864155949817695
5.0,2.9988587,21.205824,2.0584328,21.305494998030245,-5.544286621918396
5.0,2.000015,21.625099,2.2944257,21.746477784979835,-6.056430947738355
5.0,0.99884343,22.54907,2.9625032,22.742844656614754,-7.484668441460344
5.0,0.99884343,22.416922,2.9393818,22.60881149729581,-7.470196292732811
5.0,0.0,0.0,0.0,0.0,
6.0,9997.999,8.933445,2.0117085,9.157150793614642,-12.69065937779573
6.0,6812.999,9.627471,2.2912691,9.896368624119447,-13.386945031219804
6.0,4642.0,10.257171,2.3495688,10.522833766109509,-12.901926806584171
6.0,3162.0007,10.867928,2.3556256,11.12028915903536,-12.229694260798594
6.0,2154.0,11.459112,2.3549252,11.69858626185827,-11.612988717912886
6.0,1467.9995,12.019882,2.3594847,12.24927472724235,-11.105864193080624
6.0,998.00061,12.576021,2.3833454,12.79986872933243,-10.731147893698461
6.0,680.99933,13.146213,2.4293478,13.368793774111928,-10.46983283709879
6.0,463.99887,13.743837,2.4779203,13.96542675666308,-10.220244588080456
6.0,316.00006,14.361245,2.5496328,14.58581452524544,-10.067148904704315
6.0,215.00046,15.005392,2.6119366,15.231021038528032,-9.87434298408444
6.0,146.99995,15.677086,2.6431718,15.898345279170133,-9.570119971334236
6.0,102.00077,16.333591,2.6554723,16.54804302905175,-9.23420522988053
6.0,68.000511,17.077255,2.6191256,17.276934254768708,-8.719466928273693
6.0,46.000347,17.776512,2.5361118,17.956509737369434,-8.119394499574826
6.0,32.00024,18.38699,2.4064941,18.543802606623995,-7.4565037380570525
6.0,22.000166,18.951244,2.2595434,19.085470534519697,-6.799237975388159
6.0,14.99895,19.45149,2.1062241,19.565189576886823,-6.179958624539677
6.0,10.000075,19.914886,1.9784378,20.0129183409483,-5.673414909456936
6.0,6.998889,20.286388,1.9306836,20.378053814087668,-5.43654402980022
6.0,4.9988737,20.613922,1.9174987,20.70291239141454,-5.314337786824059
6.0,2.9988587,21.09074,2.0138922,21.186672120482275,-5.454466610935251
6.0,2.000015,21.499409,2.2344458,21.615210741105873,-5.933480507096917
6.0,0.99884343,22.248993,2.8664029,22.432876656799444,-7.341145304987093
6.0,0.99884343,22.274719,2.8559473,22.457059948028334,-7.306301329394079
6.0,0.0,0.0,0.0,0.0,
7.0,9997.999,8.6911573,2.0494678,8.929531537352904,-13.268561448899852
7.0,6812.999,9.4666367,2.2206979,9.723616074941015,-13.201826051753464
7.0,4642.0,10.068003,2.2722974,10.321241198715189,-12.71827672620045
7.0,3162.0007,10.667192,2.2803514,10.908207353747267,-12.066635429896921
7.0,2154.0,11.228966,2.279798,11.4580607586956,-11.476670893229313
7.0,1467.9995,11.770467,2.2881157,11.990803428239307,-11.000791224206845
7.0,998.00061,12.307852,2.3043556,12.52171216667894,-10.604514297901789
7.0,680.99933,12.864453,2.3549643,13.078226479285464,-10.373694868672207
7.0,463.99887,13.442161,2.4171882,13.657763035875979,-10.194061490429728
7.0,316.00006,14.039615,2.4768827,14.256427927702797,-10.005223526945443
7.0,215.00046,14.668238,2.5461659,14.887584317644244,-9.847485651421325
7.0,146.99995,15.32224,2.5832822,15.53848079904972,-9.569893728049793
7.0,102.00077,15.951914,2.6014135,16.162639402689717,-9.262173683197352
7.0,68.000511,16.686546,2.5759435,16.884202744734743,-8.775618980485174
7.0,46.000347,17.373646,2.5010872,17.55274942894474,-8.19194413177008
7.0,32.00024,17.987499,2.3866696,18.145145688435935,-7.558137024967747
7.0,22.000166,18.552656,2.2424009,18.687680606502692,-6.891729599148025
7.0,14.99895,19.057083,2.084733,19.170772653969323,-6.242997411368153
7.0,10.000075,19.523178,1.9584467,19.621161858983402,-5.728401326963524
7.0,6.998889,19.880774,1.8898673,19.970397423453676,-5.430222115766038
7.0,4.9988737,20.20709,1.9023125,20.296435133189185,-5.378022821420996
7.0,2.9988587,20.6548,2.0086637,20.752240671785245,-5.554504807039918
7.0,2.000015,21.046543,2.2112408,21.162385454537816,-5.997738194442423
7.0,0.99884343,21.9491,2.85657,22.13420391554438,-7.41509303947711
7.0,0.99884343,21.824181,2.7951233,22.00244510464607,-7.298401757719113
7.0,0.0,0.0,0.0,0.0,
8.0,9997.999,8.9787827,1.9742903,9.193278031393012,-12.401076731373925
8.0,6812.999,9.4505558,2.2003028,9.703315791037696,-13.106266251727778
8.0,4642.0,10.046879,2.2445109,10.29454257462952,-12.593304854490867
8.0,3162.0007,10.629181,2.2496715,10.86464498217375,-11.95032156621256
8.0,2154.0,11.187531,2.2527571,11.412088521719475,-11.385014577073251
8.0,1467.9995,11.724004,2.2526946,11.938463165453298,-10.876470956769298
8.0,998.00061,12.260443,2.2885475,12.472205587465485,-10.5732139607549
8.0,680.99933,12.806108,2.3335459,13.016982698577687,-10.32720384142434
8.0,463.99887,13.371887,2.3858652,13.583067204918779,-10.116483924678649
8.0,316.00006,13.960557,2.46346,14.176240225174269,-10.007312302388637
8.0,215.00046,14.582348,2.5279949,14.799852411680664,-9.835043658413293
8.0,146.99995,15.240311,2.5666814,15.45493231256051,-9.559702309303336
8.0,102.00077,15.87677,2.581002,16.08519185328245,-9.233496635445915
8.0,68.000511,16.591412,2.5703681,16.78933424300206,-8.806346355511074
8.0,46.000347,17.27643,2.5058887,17.45721947280516,-8.253006334226795
8.0,32.00024,17.897198,2.402909,18.057786905196465,-7.646901806984148
8.0,22.000166,18.469542,2.2477672,18.605817344990783,-6.938847329779152
8.0,14.99895,18.9816,2.0891349,19.096220128349955,-6.280754773994953
8.0,10.000075,19.448463,1.9614704,19.547124576071162,-5.759079238211047
8.0,6.998889,19.821461,1.8953843,19.911875798608413,-5.462177068561486
8.0,4.9988737,20.136744,1.8890268,20.225154663751134,-5.359229562615421
8.0,2.9988587,20.591951,1.9794817,20.6868749159228,-5.490908618016604
8.0,2.000015,21.006926,2.1878321,21.12054803425485,-5.9458124877913106
8.0,0.99884343,21.894369,2.7552254,22.06704921173119,-7.172497362105285
8.0,0.99884343,21.771873,2.7698369,21.947356341498867,-7.2502714655105605
8.0,0.0,0.0,0.0,0.0,
9.0,9997.999,8.6970558,2.2089477,8.97319505692643,-14.251094834110562
9.0,6812.999,9.41012,2.1805563,9.659460864451477,-13.046576883512818
9.0,4642.0,10.013911,2.2176957,10.256538779418694,-12.487265687834807
9.0,3162.0007,10.588779,2.2278433,10.820606567110548,-11.88154214744293
9.0,2154.0,11.137091,2.222548,11.356694746033504,-11.28583892265591
9.0,1467.9995,11.659109,2.2386079,11.872075977006862,-10.868804839597072
9.0,998.00061,12.197459,2.2642474,12.40583823629374,-10.516266271928599
9.0,680.99933,12.735731,2.3172777,12.944829857641167,-10.31220707766434
9.0,463.99887,13.298518,2.3701613,13.508080751325915,-10.10557249180467
9.0,316.00006,13.879529,2.4404216,14.092444175783971,-9.972317376262325
9.0,215.00046,14.505677,2.5088627,14.721041310850952,-9.81264583928282
9.0,146.99995,15.147989,2.5627568,15.363244877305942,-9.602449876629313
9.0,102.00077,15.781442,2.5744512,15.990050362039058,-9.265137304951343
9.0,68.000511,16.499855,2.5684838,16.698572515394464,-8.848051848362685
9.0,46.000347,17.184069,2.505846,17.365813875902187,-8.296609337128539
9.0,32.00024,17.801481,2.3970752,17.962146177665296,-7.669086678328669
9.0,22.000166,18.388163,2.2557826,18.526011272074506,-6.993860910118875
9.0,14.99895,18.895695,2.0921655,19.011166350658637,-6.318157356279245
9.0,10.000075,19.360271,1.961482,19.459380895335933,-5.785170057710548
9.0,6.998889,19.731091,1.8857032,19.82099464226685,-5.459185397506567
9.0,4.9988737,20.044827,1.8821052,20.1329930572629,-5.364049582247507
9.0,2.9988587,20.519114,1.9907373,20.615457170351746,-5.541417744105512
9.0,2.000015,20.930557,2.1667299,21.042408008348357,-5.910203376901143
9.0,0.99884343,21.693445,2.6780372,21.858120669732997,-7.037509208386752
9.0,0.99884343,21.681084,2.723309,21.851448815228178,-7.159291304866818
9.0,0.0,0.0,0.0,0.0,
10.0,9997.999,8.6624184,2.0196378,8.89474167021434,-13.124028364098596
10.0,6812.999,9.4288464,2.1723499,9.675859058648124,-12.974204525033931
10.0,4642.0,10.005569,2.2004645,10.244679352206258,-12.40326360655583
10.0,3162.0007,10.569786,2.2055113,10.797437482116935,-11.786328430309899
10.0,2154.0,11.108594,2.1985579,11.32406806304556,-11.195022106320819
10.0,1467.9995,11.631772,2.2056029,11.83903729246903,-10.736886653952807
10.0,998.00061,12.158262,2.2329664,12.361612912729997,-10.406873587669725
10.0,680.99933,12.677903,2.2814634,12.881548809166876,-10.201526061603825
10.0,463.99887,13.229239,2.3499081,13.43632511505905,-10.072383320990518
10.0,316.00006,13.812512,2.4183743,14.022625360646433,-9.93101367250909
10.0,215.00046,14.434797,2.4833069,14.646848725606358,-9.761392975634175
10.0,146.99995,15.061072,2.5404029,15.27381866736385,-9.574158036571825
10.0,102.00077,15.693386,2.5646958,15.901573151469437,-9.281528685695282
10.0,68.000511,16.412544,2.5545318,16.6101545227354,-8.846822938588012
10.0,46.000347,17.089603,2.4903035,17.27009386829502,-8.290808075619381
10.0,32.00024,17.712749,2.3885517,17.87307070317168,-7.679967343700536
10.0,22.000166,18.293741,2.2550135,18.432201324319983,-7.0272262876308575
10.0,14.99895,18.807552,2.0964403,18.924034299381518,-6.3603900942039555
10.0,10.000075,19.2852,1.9552593,19.384065052775604,-5.789237438563877
10.0,6.998889,19.638031,1.8863944,19.728424807604696,-5.486896007640215
10.0,4.9988737,19.959326,1.8805612,20.047723182476894,-5.382499789931657
10.0,2.9988587,20.439821,1.9774982,20.535257038640744,-5.526015517810014
10.0,2.000015,20.850845,2.1377218,20.96014293148356,-5.853766347431968
10.0,0.99884343,21.577255,2.6702564,21.74185370608417,-7.054673584819087
10.0,0.99884343,21.578625,2.694818,21.74624337543726,-7.118453883194083
10.0,0.0,0.0,0.0,0.0,
11.0,9997.999,8.9670935,2.2067966,9.234647641979299,-13.825711245736874
11.0,6812.999,9.4506445,2.1743882,9.697558739686988,-12.957025182699779
11.0,4642.0,10.030811,2.197381,10.268673360122134,-12.35620867997436
11.0,3162.0007,10.590219,2.20102,10.816525667161383,-11.74093103017537
11.0,2154.0,11.130565,2.2034295,11.346566827930609,-11.197613835267441
11.0,1467.9995,11.654179,2.2128351,11.862399729558643,-10.751044352815754
11.0,998.00061,12.184316,2.235126,12.387628692519487,-10.394930075708674
11.0,680.99933,12.711687,2.2899752,12.916306469056238,-10.212144424431047
11.0,463.99887,13.257881,2.3557611,13.465549337863429,-10.07558958180487
11.0,316.00006,13.849752,2.4142888,14.05860664757747,-9.888437871699377
11.0,215.00046,14.467109,2.4961631,14.68087439629134,-9.789460457760264
11.0,146.99995,15.098284,2.5448539,15.311252761188458,-9.567421387500545
11.0,102.00077,15.726281,2.5709019,15.93503845839051,-9.284474750707377
11.0,68.000511,16.437962,2.5582142,16.635836456473285,-8.845891203039743
11.0,46.000347,17.131239,2.5130889,17.314588227688933,-8.345552130514422
11.0,32.00024,17.752193,2.40888,17.91488373290904,-7.727539851958076
11.0,22.000166,18.336147,2.2712598,18.476279600739566,-7.0611401532093065
11.0,14.99895,18.861351,2.1160393,18.979678181263914,-6.401199416267724
11.0,10.000075,19.338669,1.9798982,19.439756057469555,-5.845590342464885
11.0,6.998889,19.704954,1.9079134,19.797104477271812,-5.530370050275892
11.0,4.9988737,20.031277,1.8768119,20.119007956624266,-5.352648479713956
11.0,2.9988587,20.497753,1.979984,20.59315941494323,-5.517378032548104
11.0,2.000015,20.903727,2.163435,21.015381354849453,-5.908800086317863
11.0,0.99884343,21.672132,2.6528668,21.833895843022756,-6.978807849953836
11.0,0.99884343,21.646286,2.7044287,21.814573848397306,-7.121479593240795
11.0,0.0,0.0,0.0,0.0,
12.0,9997.999,8.9229803,1.9178391,9.12675650204808,-12.13018743676457
12.0,6812.999,9.4706001,2.1697991,9.715981390908528,-12.90426588330807
12.0,4642.0,10.052667,2.2011616,10.290832143330467,-12.350730597411514
12.0,3162.0007,10.613304,2.2003517,10.838993006737704,-11.712640935596667
12.0,2154.0,11.146161,2.1972048,11.360660806971751,-11.151543623730154
12.0,1467.9995,11.675318,2.2138472,11.88335684165345,-10.736825823813794
12.0,998.00061,12.204337,2.2446001,12.409031840497832,-10.421276992207124
12.0,680.99933,12.731599,2.2948165,12.936761413331903,-10.21761120453048
12.0,463.99887,13.286683,2.3566477,13.494062899082852,-10.057901154166478
12.0,316.00006,13.877282,2.4182074,14.086400630996506,-9.884909965905836
12.0,215.00046,14.490938,2.4986176,14.70477385174195,-9.783098240382854
12.0,146.99995,15.121218,2.5469861,15.334222249501838,-9.56103474755879
12.0,102.00077,15.750136,2.5711842,15.958626889830642,-9.271657205393854
12.0,68.000511,16.473398,2.5648966,16.67187860545702,-8.849855966491905
12.0,46.000347,17.160664,2.5236382,17.345233889613457,-8.365922534603909
12.0,32.00024,17.786129,2.4297686,17.951327534591613,-7.7790409170314065
12.0,22.000166,18.371511,2.2903385,18.51372644466001,-7.1062828612217235
12.0,14.99895,18.909018,2.1209559,19.0275961606838,-6.399909320440887
12.0,10.000075,19.382603,1.9906116,19.484553718206215,-5.863772222340956
12.0,6.998889,19.765486,1.9136497,19.85790754310499,-5.530012063932964
12.0,4.9988737,20.080132,1.8869723,20.168598503574593,-5.368439666223176
12.0,2.9988587,20.553555,1.9706769,20.64781321550102,-5.476783312302925
12.0,2.000015,20.967924,2.1403117,21.076877639796006,-5.828309783055407
12.0,0.99884343,21.682978,2.6747663,21.84733186702897,-7.032358907797561
12.0,0.99884343,21.69305,2.6885445,21.859018501089665,-7.06496978463889
12.0,0.0,0.0,0.0,0.0,
