cycle number	freq/Hz	Re(Z)/Ohm	-Im(Z)/Ohm	
2.000000000000000E+000	9.9979990E+003	9.5873861E+000	2.4841325E+000
2.000000000000000E+000	6.8129990E+003	1.0309840E+001	2.4469481E+000
2.000000000000000E+000	4.6420000E+003	1.0991037E+001	2.4759643E+000
2.000000000000000E+000	3.1620007E+003	1.1643446E+001	2.4641407E+000
2.000000000000000E+000	2.1540000E+003	1.2242842E+001	2.4250112E+000
2.000000000000000E+000	1.4679995E+003	1.2817909E+001	2.4001567E+000
2.000000000000000E+000	9.9800061E+002	1.3383857E+001	2.4033151E+000
2.000000000000000E+000	6.8099933E+002	1.3942059E+001	2.4371762E+000
2.000000000000000E+000	4.6399887E+002	1.4518310E+001	2.4902732E+000
2.000000000000000E+000	3.1600006E+002	1.5129375E+001	2.5538116E+000
2.000000000000000E+000	2.1500046E+002	1.5768593E+001	2.6291382E+000
2.000000000000000E+000	1.4699995E+002	1.6423100E+001	2.6835983E+000
2.000000000000000E+000	1.0200077E+002	1.7088409E+001	2.7152920E+000
2.000000000000000E+000	6.8000511E+001	1.7842852E+001	2.7185824E+000
2.000000000000000E+000	4.6000347E+001	1.8586918E+001	2.6780691E+000
2.000000000000000E+000	3.2000240E+001	1.9243773E+001	2.5740509E+000
2.000000000000000E+000	2.2000166E+001	1.9875750E+001	2.4287579E+000
2.000000000000000E+000	1.4998950E+001	2.0443142E+001	2.2737410E+000
2.000000000000000E+000	1.0000075E+001	2.0965656E+001	2.1244974E+000
2.000000000000000E+000	6.9988890E+000	2.1353428E+001	2.0310869E+000
2.000000000000000E+000	4.9988737E+000	2.1695496E+001	2.0192358E+000
2.000000000000000E+000	2.9988587E+000	2.2200661E+001	2.1125026E+000
2.000000000000000E+000	2.0000150E+000	2.2613916E+001	2.3221326E+000
2.000000000000000E+000	9.9884343E-001	2.3544201E+001	2.9312820E+000
2.000000000000000E+000	9.9884343E-001	2.3432709E+001	2.9176252E+000
2.000000000000000E+000	0.0000000E+000	0.0000000E+000	0.0000000E+000
3.000000000000000E+000	9.9979990E+003	9.4023914E+000	2.2143757E+000
3.000000000000000E+000	6.8129990E+003	1.0198745E+001	2.3541238E+000
3.000000000000000E+000	4.6420000E+003	1.0850465E+001	2.3703036E+000
3.000000000000000E+000	3.1620007E+003	1.1473084E+001	2.3319907E+000
3.000000000000000E+000	2.1540000E+003	1.2027603E+001	2.2921765E+000
3.000000000000000E+000	1.4679995E+003	1.2565668E+001	2.2691600E+000
3.000000000000000E+000	9.9800061E+002	1.3088068E+001	2.2815068E+000
3.000000000000000E+000	6.8099933E+002	1.3613775E+001	2.3069363E+000
3.000000000000000E+000	4.6399887E+002	1.4165160E+001	2.3752770E+000
3.000000000000000E+000	3.1600006E+002	1.4742784E+001	2.4567251E+000
3.000000000000000E+000	2.1500046E+002	1.5365367E+001	2.5281715E+000
3.000000000000000E+000	1.4699995E+002	1.5992170E+001	2.5922692E+000
3.000000000000000E+000	1.0200077E+002	1.6640623E+001	2.6452396E+000
3.000000000000000E+000	6.8000511E+001	1.7375345E+001	2.6655965E+000
3.000000000000000E+000	4.6000347E+001	1.8093941E+001	2.6420975E+000
3.000000000000000E+000	3.2000240E+001	1.8753450E+001	2.5495002E+000
3.000000000000000E+000	2.2000166E+001	1.9390583E+001	2.4117937E+000
3.000000000000000E+000	1.4998950E+001	1.9955799E+001	2.2548292E+000
3.000000000000000E+000	1.0000075E+001	2.0484785E+001	2.0938017E+000
3.000000000000000E+000	6.9988890E+000	2.0867840E+001	2.0314519E+000
3.000000000000000E+000	4.9988737E+000	2.1213070E+001	1.9867251E+000
3.000000000000000E+000	2.9988587E+000	2.1693537E+001	2.0587523E+000
3.000000000000000E+000	2.0000150E+000	2.2097713E+001	2.2337027E+000
3.000000000000000E+000	9.9884343E-001	2.2942291E+001	2.9094925E+000
3.000000000000000E+000	9.9884343E-001	2.2894613E+001	2.8139646E+000
3.000000000000000E+000	0.0000000E+000	0.0000000E+000	0.0000000E+000
4.000000000000000E+000	9.9979990E+003	9.2876682E+000	2.2518215E+000
4.000000000000000E+000	6.8129990E+003	1.0084039E+001	2.2954435E+000
4.000000000000000E+000	4.6420000E+003	1.0722926E+001	2.3078632E+000
4.000000000000000E+000	3.1620007E+003	1.1307789E+001	2.2713163E+000
4.000000000000000E+000	2.1540000E+003	1.1867493E+001	2.2381346E+000
4.000000000000000E+000	1.4679995E+003	1.2377922E+001	2.2165265E+000
4.000000000000000E+000	9.9800061E+002	1.2904685E+001	2.2162662E+000
4.000000000000000E+000	6.8099933E+002	1.3402993E+001	2.2565732E+000
4.000000000000000E+000	4.6399887E+002	1.3947251E+001	2.3222902E+000
4.000000000000000E+000	3.1600006E+002	1.4509973E+001	2.3996811E+000
4.000000000000000E+000	2.1500046E+002	1.5118460E+001	2.4841208E+000
4.000000000000000E+000	1.4699995E+002	1.5737134E+001	2.5473187E+000
4.000000000000000E+000	1.0200077E+002	1.6366283E+001	2.6026106E+000
4.000000000000000E+000	6.8000511E+001	1.7090643E+001	2.6299460E+000
4.000000000000000E+000	4.6000347E+001	1.7801561E+001	2.6139708E+000
4.000000000000000E+000	3.2000240E+001	1.8446266E+001	2.5339913E+000
4.000000000000000E+000	2.2000166E+001	1.9090187E+001	2.4030418E+000
4.000000000000000E+000	1.4998950E+001	1.9672764E+001	2.2404830E+000
4.000000000000000E+000	1.0000075E+001	2.0183346E+001	2.0890844E+000
4.000000000000000E+000	6.9988890E+000	2.0588959E+001	2.0044992E+000
4.000000000000000E+000	4.9988737E+000	2.0921478E+001	1.9619418E+000
4.000000000000000E+000	2.9988587E+000	2.1410540E+001	2.0227525E+000
4.000000000000000E+000	2.0000150E+000	2.1805807E+001	2.2157755E+000
4.000000000000000E+000	9.9884343E-001	2.2666077E+001	2.7522900E+000
4.000000000000000E+000	9.9884343E-001	2.2569014E+001	2.7481196E+000
4.000000000000000E+000	0.0000000E+000	0.0000000E+000	0.0000000E+000
5.000000000000000E+000	9.9979990E+003	9.4501143E+000	2.3628032E+000
5.000000000000000E+000	6.8129990E+003	1.0107014E+001	2.2912717E+000
5.000000000000000E+000	4.6420000E+003	1.0739519E+001	2.2997921E+000
5.000000000000000E+000	3.1620007E+003	1.1330729E+001	2.2576554E+000
5.000000000000000E+000	2.1540000E+003	1.1869362E+001	2.2102668E+000
5.000000000000000E+000	1.4679995E+003	1.2390772E+001	2.1918106E+000
5.000000000000000E+000	9.9800061E+002	1.2894576E+001	2.1914945E+000
5.000000000000000E+000	6.8099933E+002	1.3401801E+001	2.2409403E+000
5.000000000000000E+000	4.6399887E+002	1.3931140E+001	2.3027108E+000
5.000000000000000E+000	3.1600006E+002	1.4494497E+001	2.3785291E+000
5.000000000000000E+000	2.1500046E+002	1.5093906E+001	2.4677479E+000
5.000000000000000E+000	1.4699995E+002	1.5709540E+001	2.5387228E+000
5.000000000000000E+000	1.0200077E+002	1.6340601E+001	2.5999904E+000
5.000000000000000E+000	6.8000511E+001	1.7064360E+001	2.6432405E+000
5.000000000000000E+000	4.6000347E+001	1.7776787E+001	2.6216564E+000
5.000000000000000E+000	3.2000240E+001	1.8441097E+001	2.5503509E+000
5.000000000000000E+000	2.2000166E+001	1.9085033E+001	2.4255347E+000
5.000000000000000E+000	1.4998950E+001	1.9660622E+001	2.2831473E+000
5.000000000000000E+000	1.0000075E+001	2.0182663E+001	2.1147683E+000
5.000000000000000E+000	6.9988890E+000	2.0602566E+001	1.9998614E+000
5.000000000000000E+000	4.9988737E+000	2.0938246E+001	1.9815017E+000
5.000000000000000E+000	2.9988587E+000	2.1433380E+001	2.0257957E+000
5.000000000000000E+000	2.0000150E+000	2.1816061E+001	2.2101088E+000
5.000000000000000E+000	9.9884343E-001	2.2668766E+001	2.8012600E+000
5.000000000000000E+000	9.9884343E-001	2.2577211E+001	2.7210634E+000
5.000000000000000E+000	0.0000000E+000	0.0000000E+000	0.0000000E+000
6.000000000000000E+000	9.9979990E+003	9.2912006E+000	2.1551952E+000
6.000000000000000E+000	6.8129990E+003	1.0076471E+001	2.2778981E+000
6.000000000000000E+000	4.6420000E+003	1.0707376E+001	2.2844279E+000
6.000000000000000E+000	3.1620007E+003	1.1283220E+001	2.2453525E+000
6.000000000000000E+000	2.1540000E+003	1.1823757E+001	2.1978023E+000
6.000000000000000E+000	1.4679995E+003	1.2332936E+001	2.1797242E+000
6.000000000000000E+000	9.9800061E+002	1.2833797E+001	2.1922748E+000
6.000000000000000E+000	6.8099933E+002	1.3337695E+001	2.2277660E+000
6.000000000000000E+000	4.6399887E+002	1.3866737E+001	2.2947853E+000
6.000000000000000E+000	3.1600006E+002	1.4434055E+001	2.3657014E+000
6.000000000000000E+000	2.1500046E+002	1.5023223E+001	2.4543822E+000
6.000000000000000E+000	1.4699995E+002	1.5638566E+001	2.5280008E+000
6.000000000000000E+000	1.0200077E+002	1.6268448E+001	2.5843532E+000
6.000000000000000E+000	6.8000511E+001	1.6979942E+001	2.6200917E+000
6.000000000000000E+000	4.6000347E+001	1.7695839E+001	2.6233377E+000
6.000000000000000E+000	3.2000240E+001	1.8352724E+001	2.5519822E+000
6.000000000000000E+000	2.2000166E+001	1.9004286E+001	2.4178162E+000
6.000000000000000E+000	1.4998950E+001	1.9590570E+001	2.2787340E+000
6.000000000000000E+000	1.0000075E+001	2.0113693E+001	2.1146750E+000
6.000000000000000E+000	6.9988890E+000	2.0514683E+001	2.0151358E+000
6.000000000000000E+000	4.9988737E+000	2.0861202E+001	1.9488577E+000
6.000000000000000E+000	2.9988587E+000	2.1357702E+001	2.0143361E+000
6.000000000000000E+000	2.0000150E+000	2.1750458E+001	2.1821022E+000
6.000000000000000E+000	9.9884343E-001	2.2582212E+001	2.6659198E+000
6.000000000000000E+000	9.9884343E-001	2.2505724E+001	2.7071326E+000
6.000000000000000E+000	0.0000000E+000	0.0000000E+000	0.0000000E+000
7.000000000000000E+000	9.9979990E+003	9.5574312E+000	2.2974501E+000
7.000000000000000E+000	6.8129990E+003	1.0087171E+001	2.2725797E+000
7.000000000000000E+000	4.6420000E+003	1.0694886E+001	2.2676456E+000
7.000000000000000E+000	3.1620007E+003	1.1278586E+001	2.2293069E+000
7.000000000000000E+000	2.1540000E+003	1.1812454E+001	2.1847522E+000
7.000000000000000E+000	1.4679995E+003	1.2316174E+001	2.1700096E+000
7.000000000000000E+000	9.9800061E+002	1.2820908E+001	2.1768637E+000
7.000000000000000E+000	6.8099933E+002	1.3316175E+001	2.2161918E+000
7.000000000000000E+000	4.6399887E+002	1.3849410E+001	2.2829876E+000
7.000000000000000E+000	3.1600006E+002	1.4402893E+001	2.3561497E+000
7.000000000000000E+000	2.1500046E+002	1.4997381E+001	2.4421911E+000
7.000000000000000E+000	1.4699995E+002	1.5609750E+001	2.5185606E+000
7.000000000000000E+000	1.0200077E+002	1.6228239E+001	2.5755651E+000
7.000000000000000E+000	6.8000511E+001	1.6944178E+001	2.6182222E+000
7.000000000000000E+000	4.6000347E+001	1.7661657E+001	2.6105826E+000
7.000000000000000E+000	3.2000240E+001	1.8321407E+001	2.5586412E+000
7.000000000000000E+000	2.2000166E+001	1.8955179E+001	2.4378464E+000
7.000000000000000E+000	1.4998950E+001	1.9556578E+001	2.2789042E+000
7.000000000000000E+000	1.0000075E+001	2.0076731E+001	2.1189289E+000
7.000000000000000E+000	6.9988890E+000	2.0491112E+001	2.0093155E+000
7.000000000000000E+000	4.9988737E+000	2.0834589E+001	1.9566802E+000
7.000000000000000E+000	2.9988587E+000	2.1313812E+001	2.0121164E+000
7.000000000000000E+000	2.0000150E+000	2.1694984E+001	2.1676888E+000
7.000000000000000E+000	9.9884343E-001	2.2506689E+001	2.7693598E+000
7.000000000000000E+000	9.9884343E-001	2.2443949E+001	2.6651292E+000
7.000000000000000E+000	0.0000000E+000	0.0000000E+000	0.0000000E+000
8.000000000000000E+000	9.9979990E+003	9.5392761E+000	2.3775852E+000
8.000000000000000E+000	6.8129990E+003	1.0146938E+001	2.2834830E+000
8.000000000000000E+000	4.6420000E+003	1.0774523E+001	2.2838748E+000
8.000000000000000E+000	3.1620007E+003	1.1352857E+001	2.2383444E+000
8.000000000000000E+000	2.1540000E+003	1.1884757E+001	2.1919847E+000
8.000000000000000E+000	1.4679995E+003	1.2394380E+001	2.1698818E+000
8.000000000000000E+000	9.9800061E+002	1.2891468E+001	2.1816411E+000
8.000000000000000E+000	6.8099933E+002	1.3394392E+001	2.2137690E+000
8.000000000000000E+000	4.6399887E+002	1.3914118E+001	2.2805030E+000
8.000000000000000E+000	3.1600006E+002	1.4466984E+001	2.3678267E+000
8.000000000000000E+000	2.1500046E+002	1.5069677E+001	2.4525919E+000
8.000000000000000E+000	1.4699995E+002	1.5676015E+001	2.5279801E+000
8.000000000000000E+000	1.0200077E+002	1.6301010E+001	2.5916808E+000
8.000000000000000E+000	6.8000511E+001	1.7021828E+001	2.6318812E+000
8.000000000000000E+000	4.6000347E+001	1.7725313E+001	2.6222887E+000
8.000000000000000E+000	3.2000240E+001	1.8399929E+001	2.5693007E+000
8.000000000000000E+000	2.2000166E+001	1.9039671E+001	2.4700108E+000
8.000000000000000E+000	1.4998950E+001	1.9643799E+001	2.2970557E+000
8.000000000000000E+000	1.0000075E+001	2.0190201E+001	2.1411850E+000
8.000000000000000E+000	6.9988890E+000	2.0606356E+001	2.0113361E+000
8.000000000000000E+000	4.9988737E+000	2.0947561E+001	1.9693606E+000
8.000000000000000E+000	2.9988587E+000	2.1431734E+001	2.0282445E+000
8.000000000000000E+000	2.0000150E+000	2.1825621E+001	2.1610112E+000
8.000000000000000E+000	9.9884343E-001	2.2586052E+001	2.7713444E+000
8.000000000000000E+000	9.9884343E-001	2.2564936E+001	2.6678350E+000
8.000000000000000E+000	0.0000000E+000	0.0000000E+000	0.0000000E+000
9.000000000000000E+000	9.9979990E+003	9.5923748E+000	2.1137400E+000
9.000000000000000E+000	6.8129990E+003	1.0119328E+001	2.2840068E+000
9.000000000000000E+000	4.6420000E+003	1.0733327E+001	2.2759078E+000
9.000000000000000E+000	3.1620007E+003	1.1321554E+001	2.2293937E+000
9.000000000000000E+000	2.1540000E+003	1.1843477E+001	2.1779437E+000
9.000000000000000E+000	1.4679995E+003	1.2350012E+001	2.1517031E+000
9.000000000000000E+000	9.9800061E+002	1.2843863E+001	2.1601081E+000
9.000000000000000E+000	6.8099933E+002	1.3336040E+001	2.2006464E+000
9.000000000000000E+000	4.6399887E+002	1.3859721E+001	2.2607775E+000
9.000000000000000E+000	3.1600006E+002	1.4408536E+001	2.3523953E+000
9.000000000000000E+000	2.1500046E+002	1.4997814E+001	2.4273441E+000
9.000000000000000E+000	1.4699995E+002	1.5610455E+001	2.5064287E+000
9.000000000000000E+000	1.0200077E+002	1.6226831E+001	2.5722401E+000
9.000000000000000E+000	6.8000511E+001	1.6937525E+001	2.6168160E+000
9.000000000000000E+000	4.6000347E+001	1.7648045E+001	2.6190608E+000
9.000000000000000E+000	3.2000240E+001	1.8319748E+001	2.5612504E+000
9.000000000000000E+000	2.2000166E+001	1.8969366E+001	2.4487147E+000
9.000000000000000E+000	1.4998950E+001	1.9557205E+001	2.2911751E+000
9.000000000000000E+000	1.0000075E+001	2.0100182E+001	2.1185594E+000
9.000000000000000E+000	6.9988890E+000	2.0512726E+001	2.0018415E+000
9.000000000000000E+000	4.9988737E+000	2.0844631E+001	1.9590534E+000
9.000000000000000E+000	2.9988587E+000	2.1346823E+001	2.0060215E+000
9.000000000000000E+000	2.0000150E+000	2.1732830E+001	2.1323340E+000
9.000000000000000E+000	9.9884343E-001	2.2454288E+001	2.6833460E+000
9.000000000000000E+000	9.9884343E-001	2.2478554E+001	2.6372216E+000
9.000000000000000E+000	0.0000000E+000	0.0000000E+000	0.0000000E+000
1.000000000000000E+001	9.9979990E+003	9.5245771E+000	2.3749292E+000
1.000000000000000E+001	6.8129990E+003	1.0151145E+001	2.2969129E+000
1.000000000000000E+001	4.6420000E+003	1.0777728E+001	2.2868071E+000
1.000000000000000E+001	3.1620007E+003	1.1367367E+001	2.2372911E+000
1.000000000000000E+001	2.1540000E+003	1.1894921E+001	2.1903954E+000
1.000000000000000E+001	1.4679995E+003	1.2393881E+001	2.1615257E+000
1.000000000000000E+001	9.9800061E+002	1.2891931E+001	2.1664677E+000
1.000000000000000E+001	6.8099933E+002	1.3387120E+001	2.1985948E+000
1.000000000000000E+001	4.6399887E+002	1.3906911E+001	2.2648559E+000
1.000000000000000E+001	3.1600006E+002	1.4465308E+001	2.3521388E+000
1.000000000000000E+001	2.1500046E+002	1.5048553E+001	2.4327493E+000
1.000000000000000E+001	1.4699995E+002	1.5652804E+001	2.5090559E+000
1.000000000000000E+001	1.0200077E+002	1.6274639E+001	2.5781837E+000
1.000000000000000E+001	6.8000511E+001	1.6993389E+001	2.6184263E+000
1.000000000000000E+001	4.6000347E+001	1.7695585E+001	2.6189744E+000
1.000000000000000E+001	3.2000240E+001	1.8360928E+001	2.5610383E+000
1.000000000000000E+001	2.2000166E+001	1.9005342E+001	2.4595270E+000
1.000000000000000E+001	1.4998950E+001	1.9617147E+001	2.2895925E+000
1.000000000000000E+001	1.0000075E+001	2.0158525E+001	2.1303778E+000
1.000000000000000E+001	6.9988890E+000	2.0566254E+001	2.0176589E+000
1.000000000000000E+001	4.9988737E+000	2.0929289E+001	1.9640334E+000
1.000000000000000E+001	2.9988587E+000	2.1392654E+001	1.9865587E+000
1.000000000000000E+001	2.0000150E+000	2.1796894E+001	2.1207373E+000
1.000000000000000E+001	9.9884343E-001	2.2517479E+001	2.6800811E+000
1.000000000000000E+001	9.9884343E-001	2.2539930E+001	2.6311588E+000
1.000000000000000E+001	0.0000000E+000	0.0000000E+000	0.0000000E+000
1.100000000000000E+001	9.9979990E+003	9.3274231E+000	2.2493310E+000
1.100000000000000E+001	6.8129990E+003	1.0137629E+001	2.3050084E+000
1.100000000000000E+001	4.6420000E+003	1.0763420E+001	2.2885425E+000
1.100000000000000E+001	3.1620007E+003	1.1339755E+001	2.2433798E+000
1.100000000000000E+001	2.1540000E+003	1.1877625E+001	2.1862686E+000
1.100000000000000E+001	1.4679995E+003	1.2380164E+001	2.1469765E+000
1.100000000000000E+001	9.9800061E+002	1.2876471E+001	2.1538513E+000
1.100000000000000E+001	6.8099933E+002	1.3364324E+001	2.1822612E+000
1.100000000000000E+001	4.6399887E+002	1.3882483E+001	2.2473724E+000
1.100000000000000E+001	3.1600006E+002	1.4428489E+001	2.3361380E+000
1.100000000000000E+001	2.1500046E+002	1.5017295E+001	2.4145095E+000
1.100000000000000E+001	1.4699995E+002	1.5616546E+001	2.4975812E+000
1.100000000000000E+001	1.0200077E+002	1.6227730E+001	2.5577631E+000
1.100000000000000E+001	6.8000511E+001	1.6937805E+001	2.6104519E+000
1.100000000000000E+001	4.6000347E+001	1.7650795E+001	2.6131089E+000
1.100000000000000E+001	3.2000240E+001	1.8314035E+001	2.5568399E+000
1.100000000000000E+001	2.2000166E+001	1.8960680E+001	2.4339817E+000
1.100000000000000E+001	1.4998950E+001	1.9565928E+001	2.2830801E+000
1.100000000000000E+001	1.0000075E+001	2.0105247E+001	2.1226392E+000
1.100000000000000E+001	6.9988890E+000	2.0518074E+001	2.0019894E+000
1.100000000000000E+001	4.9988737E+000	2.0874624E+001	1.9515604E+000
1.100000000000000E+001	2.9988587E+000	2.1340910E+001	1.9744385E+000
1.100000000000000E+001	2.0000150E+000	2.1745911E+001	2.1215773E+000
1.100000000000000E+001	9.9884343E-001	2.2520012E+001	2.5895846E+000
1.100000000000000E+001	9.9884343E-001	2.2473509E+001	2.6195412E+000
1.100000000000000E+001	0.0000000E+000	0.0000000E+000	0.0000000E+000